date Thu Apr 04 01:38:47.552056 PM 2019
base hex  timestamps absolute
internal events logged
Begin Triggerblock Wed Apr 04 10:50:02.821 AM 2019
 0.000000 Start of measurement
 0.000000 1  7E8             Rx   d 8 03 41 05 5C 00 00 00 00
 0.060000 1  7E8             Rx   d 8 04 41 0C 00 00 00 00 00
 0.090000 1  7E8             Rx   d 8 03 41 0D 00 00 00 00 00
 0.120000 1  7E8             Rx   d 8 03 41 11 48 00 00 00 00
 0.280000 1  7E8             Rx   d 8 03 41 0D 00 00 00 00 00
 0.310000 1  7E8             Rx   d 8 04 41 10 00 00 00 00 00
 0.480050 1  7E8             Rx   d 8 03 41 0D 00 00 00 00 00
 0.510050 1  7E8             Rx   d 8 04 41 10 00 A9 00 00 00
 0.680000 1  7E8             Rx   d 8 03 41 0D 00 00 00 00 00
 0.710000 1  7E8             Rx   d 8 04 41 10 00 E6 00 00 00
 0.880050 1  7E8             Rx   d 8 03 41 0D 00 00 00 00 00
 0.910050 1  7E8             Rx   d 8 04 41 10 01 7C 00 00 00
 1.000050 1  7E8             Rx   d 8 03 41 05 5C 00 00 00 00
 1.060000 1  7E8             Rx   d 8 04 41 0C 10 F0 00 00 00
 1.090050 1  7E8             Rx   d 8 03 41 0D 00 00 00 00 00
 1.120000 1  7E8             Rx   d 8 03 41 11 1D 00 00 00 00
 1.280050 1  7E8             Rx   d 8 03 41 0D 00 00 00 00 00
 1.310050 1  7E8             Rx   d 8 04 41 10 01 A0 00 00 00
 1.480050 1  7E8             Rx   d 8 03 41 0D 00 00 00 00 00
 1.510050 1  7E8             Rx   d 8 04 41 10 01 B9 00 00 00
 1.680050 1  7E8             Rx   d 8 03 41 0D 00 00 00 00 00
 1.710050 1  7E8             Rx   d 8 04 41 10 01 A3 00 00 00
 1.880050 1  7E8             Rx   d 8 03 41 0D 00 00 00 00 00
 1.910050 1  7E8             Rx   d 8 04 41 10 01 A3 00 00 00
 2.000050 1  7E8             Rx   d 8 03 41 05 5C 00 00 00 00
 2.060050 1  7E8             Rx   d 8 04 41 0C 0E F8 00 00 00
 2.090100 1  7E8             Rx   d 8 03 41 0D 00 00 00 00 00
 2.120050 1  7E8             Rx   d 8 03 41 11 1F 00 00 00 00
 2.280100 1  7E8             Rx   d 8 03 41 0D 00 00 00 00 00
 2.310100 1  7E8             Rx   d 8 04 41 10 02 20 00 00 00
 2.480050 1  7E8             Rx   d 8 03 41 0D 00 00 00 00 00
 2.510050 1  7E8             Rx   d 8 04 41 10 01 EE 00 00 00
 2.680100 1  7E8             Rx   d 8 03 41 0D 00 00 00 00 00
 2.710100 1  7E8             Rx   d 8 04 41 10 02 12 00 00 00
 2.880100 1  7E8             Rx   d 8 03 41 0D 00 00 00 00 00
 2.910100 1  7E8             Rx   d 8 04 41 10 02 39 00 00 00
 3.000100 1  7E8             Rx   d 8 03 41 05 5A 00 00 00 00
 3.060100 1  7E8             Rx   d 8 04 41 0C 0E 7C 00 00 00
 3.090100 1  7E8             Rx   d 8 03 41 0D 00 00 00 00 00
 3.120100 1  7E8             Rx   d 8 03 41 11 22 00 00 00 00
 3.280100 1  7E8             Rx   d 8 03 41 0D 00 00 00 00 00
 3.310100 1  7E8             Rx   d 8 04 41 10 02 F6 00 00 00
 3.480100 1  7E8             Rx   d 8 03 41 0D 00 00 00 00 00
 3.510100 1  7E8             Rx   d 8 04 41 10 02 F3 00 00 00
 3.680100 1  7E8             Rx   d 8 03 41 0D 00 00 00 00 00
 3.710100 1  7E8             Rx   d 8 04 41 10 02 ED 00 00 00
 3.880100 1  7E8             Rx   d 8 03 41 0D 01 00 00 00 00
 3.910100 1  7E8             Rx   d 8 04 41 10 02 ED 00 00 00
 4.000100 1  7E8             Rx   d 8 03 41 05 5A 00 00 00 00
 4.060100 1  7E8             Rx   d 8 04 41 0C 0E 40 00 00 00
 4.090100 1  7E8             Rx   d 8 03 41 0D 01 00 00 00 00
 4.120100 1  7E8             Rx   d 8 03 41 11 23 00 00 00 00
 4.280100 1  7E8             Rx   d 8 03 41 0D 02 00 00 00 00
 4.310150 1  7E8             Rx   d 8 04 41 10 02 C7 00 00 00
 4.480150 1  7E8             Rx   d 8 03 41 0D 02 00 00 00 00
 4.510150 1  7E8             Rx   d 8 04 41 10 02 AE 00 00 00
 4.680150 1  7E8             Rx   d 8 03 41 0D 02 00 00 00 00
 4.710150 1  7E8             Rx   d 8 04 41 10 01 FC 00 00 00
 4.880100 1  7E8             Rx   d 8 03 41 0D 02 00 00 00 00
 4.910100 1  7E8             Rx   d 8 04 41 10 02 5D 00 00 00
 5.000100 1  7E8             Rx   d 8 03 41 05 59 00 00 00 00
 5.060150 1  7E8             Rx   d 8 04 41 0C 10 D4 00 00 00
 5.090150 1  7E8             Rx   d 8 03 41 0D 03 00 00 00 00
 5.120150 1  7E8             Rx   d 8 03 41 11 23 00 00 00 00
 5.280200 1  7E8             Rx   d 8 03 41 0D 03 00 00 00 00
 5.310200 1  7E8             Rx   d 8 04 41 10 02 F3 00 00 00
 5.480150 1  7E8             Rx   d 8 03 41 0D 04 00 00 00 00
 5.510150 1  7E8             Rx   d 8 04 41 10 02 FB 00 00 00
 5.680150 1  7E8             Rx   d 8 03 41 0D 04 00 00 00 00
 5.710150 1  7E8             Rx   d 8 04 41 10 02 DD 00 00 00
 5.880150 1  7E8             Rx   d 8 03 41 0D 05 00 00 00 00
 5.910150 1  7E8             Rx   d 8 04 41 10 02 D4 00 00 00
 6.000150 1  7E8             Rx   d 8 03 41 05 58 00 00 00 00
 6.060150 1  7E8             Rx   d 8 04 41 0C 11 F4 00 00 00
 6.090150 1  7E8             Rx   d 8 03 41 0D 05 00 00 00 00
 6.120150 1  7E8             Rx   d 8 03 41 11 23 00 00 00 00
 6.280200 1  7E8             Rx   d 8 03 41 0D 06 00 00 00 00
 6.310200 1  7E8             Rx   d 8 04 41 10 02 CC 00 00 00
 6.480200 1  7E8             Rx   d 8 03 41 0D 06 00 00 00 00
 6.510200 1  7E8             Rx   d 8 04 41 10 02 C4 00 00 00
 6.680150 1  7E8             Rx   d 8 03 41 0D 07 00 00 00 00
 6.710150 1  7E8             Rx   d 8 04 41 10 02 C1 00 00 00
 6.880200 1  7E8             Rx   d 8 03 41 0D 07 00 00 00 00
 6.910200 1  7E8             Rx   d 8 04 41 10 02 BB 00 00 00
 7.000200 1  7E8             Rx   d 8 03 41 05 57 00 00 00 00
 7.060200 1  7E8             Rx   d 8 04 41 0C 12 5C 00 00 00
 7.090200 1  7E8             Rx   d 8 03 41 0D 08 00 00 00 00
 7.120150 1  7E8             Rx   d 8 03 41 11 23 00 00 00 00
 7.280200 1  7E8             Rx   d 8 03 41 0D 08 00 00 00 00
 7.310200 1  7E8             Rx   d 8 04 41 10 02 B6 00 00 00
 7.480200 1  7E8             Rx   d 8 03 41 0D 08 00 00 00 00
 7.510200 1  7E8             Rx   d 8 04 41 10 02 AB 00 00 00
 7.680200 1  7E8             Rx   d 8 03 41 0D 09 00 00 00 00
 7.710200 1  7E8             Rx   d 8 04 41 10 02 9A 00 00 00
 7.880200 1  7E8             Rx   d 8 03 41 0D 09 00 00 00 00
 7.910200 1  7E8             Rx   d 8 04 41 10 02 9A 00 00 00
 8.000200 1  7E8             Rx   d 8 03 41 05 56 00 00 00 00
 8.060200 1  7E8             Rx   d 8 04 41 0C 12 B0 00 00 00
 8.090250 1  7E8             Rx   d 8 03 41 0D 0A 00 00 00 00
 8.120200 1  7E8             Rx   d 8 03 41 11 22 00 00 00 00
 8.280250 1  7E8             Rx   d 8 03 41 0D 0A 00 00 00 00
 8.310250 1  7E8             Rx   d 8 04 41 10 02 9A 00 00 00
 8.480250 1  7E8             Rx   d 8 03 41 0D 0A 00 00 00 00
 8.510250 1  7E8             Rx   d 8 04 41 10 02 9A 00 00 00
 8.680250 1  7E8             Rx   d 8 03 41 0D 0B 00 00 00 00
 8.710250 1  7E8             Rx   d 8 04 41 10 02 9A 00 00 00
 8.880250 1  7E8             Rx   d 8 03 41 0D 0B 00 00 00 00
 8.910250 1  7E8             Rx   d 8 04 41 10 02 8C 00 00 00
 9.000250 1  7E8             Rx   d 8 03 41 05 56 00 00 00 00
 9.060250 1  7E8             Rx   d 8 04 41 0C 14 74 00 00 00
 9.090250 1  7E8             Rx   d 8 03 41 0D 0B 00 00 00 00
 9.120250 1  7E8             Rx   d 8 03 41 11 22 00 00 00 00
 9.280250 1  7E8             Rx   d 8 03 41 0D 0B 00 00 00 00
 9.310250 1  7E8             Rx   d 8 04 41 10 02 3C 00 00 00
 9.480300 1  7E8             Rx   d 8 03 41 0D 0B 00 00 00 00
 9.510300 1  7E8             Rx   d 8 04 41 10 02 07 00 00 00
 9.680250 1  7E8             Rx   d 8 03 41 0D 0B 00 00 00 00
 9.710250 1  7E8             Rx   d 8 04 41 10 01 D5 00 00 00
 9.880250 1  7E8             Rx   d 8 03 41 0D 0B 00 00 00 00
 9.910250 1  7E8             Rx   d 8 04 41 10 01 5D 00 00 00
 10.000250 1  7E8             Rx   d 8 03 41 05 56 00 00 00 00
 10.060250 1  7E8             Rx   d 8 04 41 0C 13 4E 00 00 00
 10.090250 1  7E8             Rx   d 8 03 41 0D 0B 00 00 00 00
 10.120250 1  7E8             Rx   d 8 03 41 11 1D 00 00 00 00
 10.280300 1  7E8             Rx   d 8 03 41 0D 0B 00 00 00 00
 10.310300 1  7E8             Rx   d 8 04 41 10 01 50 00 00 00
 10.480300 1  7E8             Rx   d 8 03 41 0D 0B 00 00 00 00
 10.510300 1  7E8             Rx   d 8 04 41 10 01 0D 00 00 00
 10.680300 1  7E8             Rx   d 8 03 41 0D 0A 00 00 00 00
 10.710300 1  7E8             Rx   d 8 04 41 10 00 F7 00 00 00
 10.880300 1  7E8             Rx   d 8 03 41 0D 0A 00 00 00 00
 10.910300 1  7E8             Rx   d 8 04 41 10 00 F7 00 00 00
 11.000300 1  7E8             Rx   d 8 03 41 05 56 00 00 00 00
 11.060300 1  7E8             Rx   d 8 04 41 0C 0D 7E 00 00 00
 11.090300 1  7E8             Rx   d 8 03 41 0D 09 00 00 00 00
 11.120300 1  7E8             Rx   d 8 03 41 11 1C 00 00 00 00
 11.280350 1  7E8             Rx   d 8 03 41 0D 09 00 00 00 00
 11.310350 1  7E8             Rx   d 8 04 41 10 00 EC 00 00 00
 11.480300 1  7E8             Rx   d 8 03 41 0D 08 00 00 00 00
 11.510350 1  7E8             Rx   d 8 04 41 10 00 FC 00 00 00
 11.680300 1  7E8             Rx   d 8 03 41 0D 08 00 00 00 00
 11.710300 1  7E8             Rx   d 8 04 41 10 01 07 00 00 00
 11.880350 1  7E8             Rx   d 8 03 41 0D 07 00 00 00 00
 11.910350 1  7E8             Rx   d 8 04 41 10 00 FC 00 00 00
 12.000350 1  7E8             Rx   d 8 03 41 05 56 00 00 00 00
 12.060350 1  7E8             Rx   d 8 04 41 0C 0B 70 00 00 00
 12.090350 1  7E8             Rx   d 8 03 41 0D 07 00 00 00 00
 12.120350 1  7E8             Rx   d 8 03 41 11 21 00 00 00 00
 12.280350 1  7E8             Rx   d 8 03 41 0D 07 00 00 00 00
 12.310350 1  7E8             Rx   d 8 04 41 10 01 B4 00 00 00
 12.480350 1  7E8             Rx   d 8 03 41 0D 07 00 00 00 00
 12.510350 1  7E8             Rx   d 8 04 41 10 02 BB 00 00 00
 12.680350 1  7E8             Rx   d 8 03 41 0D 07 00 00 00 00
 12.710350 1  7E8             Rx   d 8 04 41 10 02 B9 00 00 00
 12.880350 1  7E8             Rx   d 8 03 41 0D 07 00 00 00 00
 12.910350 1  7E8             Rx   d 8 04 41 10 03 33 00 00 00
 13.000350 1  7E8             Rx   d 8 03 41 05 57 00 00 00 00
 13.060350 1  7E8             Rx   d 8 04 41 0C 13 58 00 00 00
 13.090350 1  7E8             Rx   d 8 03 41 0D 08 00 00 00 00
 13.120350 1  7E8             Rx   d 8 03 41 11 24 00 00 00 00
 13.280400 1  7E8             Rx   d 8 03 41 0D 08 00 00 00 00
 13.310400 1  7E8             Rx   d 8 04 41 10 02 5D 00 00 00
 13.480350 1  7E8             Rx   d 8 03 41 0D 08 00 00 00 00
 13.510350 1  7E8             Rx   d 8 04 41 10 02 5A 00 00 00
 13.680400 1  7E8             Rx   d 8 03 41 0D 08 00 00 00 00
 13.710400 1  7E8             Rx   d 8 04 41 10 01 DD 00 00 00
 13.880350 1  7E8             Rx   d 8 03 41 0D 07 00 00 00 00
 13.910400 1  7E8             Rx   d 8 04 41 10 01 C1 00 00 00
 14.000400 1  7E8             Rx   d 8 03 41 05 58 00 00 00 00
 14.060400 1  7E8             Rx   d 8 04 41 0C 10 3E 00 00 00
 14.090400 1  7E8             Rx   d 8 03 41 0D 07 00 00 00 00
 14.120400 1  7E8             Rx   d 8 03 41 11 1E 00 00 00 00
 14.280400 1  7E8             Rx   d 8 03 41 0D 07 00 00 00 00
 14.310400 1  7E8             Rx   d 8 04 41 10 01 42 00 00 00
 14.480400 1  7E8             Rx   d 8 03 41 0D 06 00 00 00 00
 14.510400 1  7E8             Rx   d 8 04 41 10 01 31 00 00 00
 14.680400 1  7E8             Rx   d 8 03 41 0D 06 00 00 00 00
 14.710400 1  7E8             Rx   d 8 04 41 10 01 50 00 00 00
 14.880400 1  7E8             Rx   d 8 03 41 0D 05 00 00 00 00
 14.910400 1  7E8             Rx   d 8 04 41 10 01 4D 00 00 00
 15.000400 1  7E8             Rx   d 8 03 41 05 59 00 00 00 00
 15.060400 1  7E8             Rx   d 8 04 41 0C 0B B8 00 00 00
 15.090400 1  7E8             Rx   d 8 03 41 0D 05 00 00 00 00
 15.120400 1  7E8             Rx   d 8 03 41 11 1E 00 00 00 00
 15.280450 1  7E8             Rx   d 8 03 41 0D 04 00 00 00 00
 15.310450 1  7E8             Rx   d 8 04 41 10 01 6E 00 00 00
 15.480450 1  7E8             Rx   d 8 03 41 0D 03 00 00 00 00
 15.510450 1  7E8             Rx   d 8 04 41 10 01 69 00 00 00
 15.680450 1  7E8             Rx   d 8 03 41 0D 02 00 00 00 00
 15.710450 1  7E8             Rx   d 8 04 41 10 01 71 00 00 00
 15.880450 1  7E8             Rx   d 8 03 41 0D 02 00 00 00 00
 15.910450 1  7E8             Rx   d 8 04 41 10 01 74 00 00 00
 16.000450 1  7E8             Rx   d 8 03 41 05 59 00 00 00 00
 16.060450 1  7E8             Rx   d 8 04 41 0C 0C 92 00 00 00
 16.090450 1  7E8             Rx   d 8 03 41 0D 01 00 00 00 00
 16.120450 1  7E8             Rx   d 8 03 41 11 1F 00 00 00 00
 16.280500 1  7E8             Rx   d 8 03 41 0D 01 00 00 00 00
 16.310500 1  7E8             Rx   d 8 04 41 10 01 E3 00 00 00
 16.480450 1  7E8             Rx   d 8 03 41 0D 00 00 00 00 00
 16.510500 1  7E8             Rx   d 8 04 41 10 01 E0 00 00 00
 16.680500 1  7E8             Rx   d 8 03 41 0D 00 00 00 00 00
 16.710450 1  7E8             Rx   d 8 04 41 10 02 01 00 00 00
 16.880500 1  7E8             Rx   d 8 03 41 0D 00 00 00 00 00
 16.910500 1  7E8             Rx   d 8 04 41 10 01 DA 00 00 00
 17.000500 1  7E8             Rx   d 8 03 41 05 59 00 00 00 00
 17.060500 1  7E8             Rx   d 8 04 41 0C 0C 6A 00 00 00
 17.090500 1  7E8             Rx   d 8 03 41 0D 00 00 00 00 00
 17.120500 1  7E8             Rx   d 8 03 41 11 1C 00 00 00 00
 17.280500 1  7E8             Rx   d 8 03 41 0D 00 00 00 00 00
 17.310500 1  7E8             Rx   d 8 04 41 10 01 60 00 00 00
 17.480500 1  7E8             Rx   d 8 03 41 0D 00 00 00 00 00
 17.510500 1  7E8             Rx   d 8 04 41 10 01 5B 00 00 00
 17.680500 1  7E8             Rx   d 8 03 41 0D 00 00 00 00 00
 17.710500 1  7E8             Rx   d 8 04 41 10 02 A5 00 00 00
 17.880500 1  7E8             Rx   d 8 03 41 0D 00 00 00 00 00
 17.910500 1  7E8             Rx   d 8 04 41 10 01 EB 00 00 00
 18.000500 1  7E8             Rx   d 8 03 41 05 59 00 00 00 00
 18.060500 1  7E8             Rx   d 8 04 41 0C 0C AC 00 00 00
 18.090500 1  7E8             Rx   d 8 03 41 0D 00 00 00 00 00
 18.120500 1  7E8             Rx   d 8 03 41 11 20 00 00 00 00
 18.280550 1  7E8             Rx   d 8 03 41 0D 00 00 00 00 00
 18.310550 1  7E8             Rx   d 8 04 41 10 02 18 00 00 00
 18.480500 1  7E8             Rx   d 8 03 41 0D 00 00 00 00 00
 18.510500 1  7E8             Rx   d 8 04 41 10 02 6E 00 00 00
 18.680550 1  7E8             Rx   d 8 03 41 0D 00 00 00 00 00
 18.710550 1  7E8             Rx   d 8 04 41 10 02 6E 00 00 00
 18.880500 1  7E8             Rx   d 8 03 41 0D 00 00 00 00 00
 18.910500 1  7E8             Rx   d 8 04 41 10 02 89 00 00 00
 19.000550 1  7E8             Rx   d 8 03 41 05 5A 00 00 00 00
 19.060550 1  7E8             Rx   d 8 04 41 0C 0D 34 00 00 00
 19.090550 1  7E8             Rx   d 8 03 41 0D 01 00 00 00 00
 19.120550 1  7E8             Rx   d 8 03 41 11 22 00 00 00 00
 19.280550 1  7E8             Rx   d 8 03 41 0D 01 00 00 00 00
 19.310550 1  7E8             Rx   d 8 04 41 10 02 84 00 00 00
 19.480550 1  7E8             Rx   d 8 03 41 0D 01 00 00 00 00
 19.510550 1  7E8             Rx   d 8 04 41 10 02 7E 00 00 00
 19.680550 1  7E8             Rx   d 8 03 41 0D 02 00 00 00 00
 19.710550 1  7E8             Rx   d 8 04 41 10 02 65 00 00 00
 19.880550 1  7E8             Rx   d 8 03 41 0D 02 00 00 00 00
 19.910550 1  7E8             Rx   d 8 04 41 10 02 39 00 00 00
 20.000550 1  7E8             Rx   d 8 03 41 05 5A 00 00 00 00
 20.060550 1  7E8             Rx   d 8 04 41 0C 0C AE 00 00 00
 20.090550 1  7E8             Rx   d 8 03 41 0D 02 00 00 00 00
 20.120550 1  7E8             Rx   d 8 03 41 11 21 00 00 00 00
 20.280600 1  7E8             Rx   d 8 03 41 0D 03 00 00 00 00
 20.310600 1  7E8             Rx   d 8 04 41 10 02 1D 00 00 00
 20.480600 1  7E8             Rx   d 8 03 41 0D 03 00 00 00 00
 20.510600 1  7E8             Rx   d 8 04 41 10 01 F1 00 00 00
 20.680600 1  7E8             Rx   d 8 03 41 0D 03 00 00 00 00
 20.710600 1  7E8             Rx   d 8 04 41 10 01 CD 00 00 00
 20.880600 1  7E8             Rx   d 8 03 41 0D 03 00 00 00 00
 20.910600 1  7E8             Rx   d 8 04 41 10 01 C7 00 00 00
 21.000550 1  7E8             Rx   d 8 03 41 05 5A 00 00 00 00
 21.060600 1  7E8             Rx   d 8 04 41 0C 0C 4A 00 00 00
 21.090600 1  7E8             Rx   d 8 03 41 0D 03 00 00 00 00
 21.120600 1  7E8             Rx   d 8 03 41 11 1F 00 00 00 00
 21.280650 1  7E8             Rx   d 8 03 41 0D 03 00 00 00 00
 21.310600 1  7E8             Rx   d 8 04 41 10 01 B6 00 00 00
 21.480600 1  7E8             Rx   d 8 03 41 0D 03 00 00 00 00
 21.510600 1  7E8             Rx   d 8 04 41 10 01 A6 00 00 00
 21.680650 1  7E8             Rx   d 8 03 41 0D 03 00 00 00 00
 21.710650 1  7E8             Rx   d 8 04 41 10 01 A0 00 00 00
 21.880600 1  7E8             Rx   d 8 03 41 0D 03 00 00 00 00
 21.910600 1  7E8             Rx   d 8 04 41 10 01 A0 00 00 00
 22.000600 1  7E8             Rx   d 8 03 41 05 5A 00 00 00 00
 22.060600 1  7E8             Rx   d 8 04 41 0C 0C BA 00 00 00
 22.090650 1  7E8             Rx   d 8 03 41 0D 03 00 00 00 00
 22.120650 1  7E8             Rx   d 8 03 41 11 1E 00 00 00 00
 22.280650 1  7E8             Rx   d 8 03 41 0D 03 00 00 00 00
 22.310650 1  7E8             Rx   d 8 04 41 10 01 95 00 00 00
 22.480650 1  7E8             Rx   d 8 03 41 0D 03 00 00 00 00
 22.510650 1  7E8             Rx   d 8 04 41 10 01 95 00 00 00
 22.680650 1  7E8             Rx   d 8 03 41 0D 03 00 00 00 00
 22.710650 1  7E8             Rx   d 8 04 41 10 01 95 00 00 00
 22.880650 1  7E8             Rx   d 8 03 41 0D 03 00 00 00 00
 22.910650 1  7E8             Rx   d 8 04 41 10 01 84 00 00 00
 23.000650 1  7E8             Rx   d 8 03 41 05 5A 00 00 00 00
 23.060650 1  7E8             Rx   d 8 04 41 0C 0C 94 00 00 00
 23.090650 1  7E8             Rx   d 8 03 41 0D 03 00 00 00 00
 23.120650 1  7E8             Rx   d 8 03 41 11 1E 00 00 00 00
 23.280650 1  7E8             Rx   d 8 03 41 0D 03 00 00 00 00
 23.310650 1  7E8             Rx   d 8 04 41 10 01 69 00 00 00
 23.480700 1  7E8             Rx   d 8 03 41 0D 03 00 00 00 00
 23.510700 1  7E8             Rx   d 8 04 41 10 01 76 00 00 00
 23.680700 1  7E8             Rx   d 8 03 41 0D 03 00 00 00 00
 23.710700 1  7E8             Rx   d 8 04 41 10 01 87 00 00 00
 23.880650 1  7E8             Rx   d 8 03 41 0D 02 00 00 00 00
 23.910650 1  7E8             Rx   d 8 04 41 10 01 92 00 00 00
 24.000650 1  7E8             Rx   d 8 03 41 05 5B 00 00 00 00
 24.060650 1  7E8             Rx   d 8 04 41 0C 0C A0 00 00 00
 24.090650 1  7E8             Rx   d 8 03 41 0D 02 00 00 00 00
 24.120650 1  7E8             Rx   d 8 03 41 11 1F 00 00 00 00
 24.280700 1  7E8             Rx   d 8 03 41 0D 02 00 00 00 00
 24.310700 1  7E8             Rx   d 8 04 41 10 01 C4 00 00 00
 24.480700 1  7E8             Rx   d 8 03 41 0D 01 00 00 00 00
 24.510700 1  7E8             Rx   d 8 04 41 10 01 C7 00 00 00
 24.680700 1  7E8             Rx   d 8 03 41 0D 01 00 00 00 00
 24.710700 1  7E8             Rx   d 8 04 41 10 01 C7 00 00 00
 24.880700 1  7E8             Rx   d 8 03 41 0D 01 00 00 00 00
 24.910700 1  7E8             Rx   d 8 04 41 10 01 C7 00 00 00
 25.000700 1  7E8             Rx   d 8 03 41 05 5B 00 00 00 00
 25.060700 1  7E8             Rx   d 8 04 41 0C 0C F2 00 00 00
 25.090700 1  7E8             Rx   d 8 03 41 0D 00 00 00 00 00
 25.120700 1  7E8             Rx   d 8 03 41 11 1F 00 00 00 00
 25.280750 1  7E8             Rx   d 8 03 41 0D 00 00 00 00 00
 25.310700 1  7E8             Rx   d 8 04 41 10 01 DD 00 00 00
 25.480700 1  7E8             Rx   d 8 03 41 0D 00 00 00 00 00
 25.510700 1  7E8             Rx   d 8 04 41 10 01 D5 00 00 00
 25.680700 1  7E8             Rx   d 8 03 41 0D 00 00 00 00 00
 25.710700 1  7E8             Rx   d 8 04 41 10 01 C1 00 00 00
 25.880750 1  7E8             Rx   d 8 03 41 0D 00 00 00 00 00
 25.910750 1  7E8             Rx   d 8 04 41 10 01 3C 00 00 00
 26.000750 1  7E8             Rx   d 8 03 41 05 5B 00 00 00 00
 26.060700 1  7E8             Rx   d 8 04 41 0C 0C D2 00 00 00
 26.090700 1  7E8             Rx   d 8 03 41 0D 00 00 00 00 00
 26.120700 1  7E8             Rx   d 8 03 41 11 1F 00 00 00 00
 26.280750 1  7E8             Rx   d 8 03 41 0D 00 00 00 00 00
 26.310750 1  7E8             Rx   d 8 04 41 10 01 BF 00 00 00
 26.480750 1  7E8             Rx   d 8 03 41 0D 00 00 00 00 00
 26.510750 1  7E8             Rx   d 8 04 41 10 02 36 00 00 00
 26.680750 1  7E8             Rx   d 8 03 41 0D 00 00 00 00 00
 26.710750 1  7E8             Rx   d 8 04 41 10 01 EE 00 00 00
 26.880750 1  7E8             Rx   d 8 03 41 0D 00 00 00 00 00
 26.910750 1  7E8             Rx   d 8 04 41 10 01 C4 00 00 00
 27.000750 1  7E8             Rx   d 8 03 41 05 5B 00 00 00 00
 27.060750 1  7E8             Rx   d 8 04 41 0C 0E B2 00 00 00
 27.090750 1  7E8             Rx   d 8 03 41 0D 00 00 00 00 00
 27.120750 1  7E8             Rx   d 8 03 41 11 23 00 00 00 00
 27.280800 1  7E8             Rx   d 8 03 41 0D 00 00 00 00 00
 27.310800 1  7E8             Rx   d 8 04 41 10 03 5A 00 00 00
 27.480750 1  7E8             Rx   d 8 03 41 0D 00 00 00 00 00
 27.510750 1  7E8             Rx   d 8 04 41 10 03 BB 00 00 00
 27.680800 1  7E8             Rx   d 8 03 41 0D 01 00 00 00 00
 27.710800 1  7E8             Rx   d 8 04 41 10 04 25 00 00 00
 27.880800 1  7E8             Rx   d 8 03 41 0D 02 00 00 00 00
 27.910750 1  7E8             Rx   d 8 04 41 10 04 59 00 00 00
 28.000800 1  7E8             Rx   d 8 03 41 05 5B 00 00 00 00
 28.060800 1  7E8             Rx   d 8 04 41 0C 12 40 00 00 00
 28.090800 1  7E8             Rx   d 8 03 41 0D 04 00 00 00 00
 28.120800 1  7E8             Rx   d 8 03 41 11 29 00 00 00 00
 28.280800 1  7E8             Rx   d 8 03 41 0D 05 00 00 00 00
 28.310800 1  7E8             Rx   d 8 04 41 10 04 CE 00 00 00
 28.480800 1  7E8             Rx   d 8 03 41 0D 06 00 00 00 00
 28.510800 1  7E8             Rx   d 8 04 41 10 04 D6 00 00 00
 28.680800 1  7E8             Rx   d 8 03 41 0D 07 00 00 00 00
 28.710800 1  7E8             Rx   d 8 04 41 10 04 B5 00 00 00
 28.880800 1  7E8             Rx   d 8 03 41 0D 08 00 00 00 00
 28.910800 1  7E8             Rx   d 8 04 41 10 04 9F 00 00 00
 29.000800 1  7E8             Rx   d 8 03 41 05 5C 00 00 00 00
 29.060800 1  7E8             Rx   d 8 04 41 0C 14 BA 00 00 00
 29.090800 1  7E8             Rx   d 8 03 41 0D 09 00 00 00 00
 29.120800 1  7E8             Rx   d 8 03 41 11 29 00 00 00 00
 29.280850 1  7E8             Rx   d 8 03 41 0D 0A 00 00 00 00
 29.310850 1  7E8             Rx   d 8 04 41 10 04 91 00 00 00
 29.480850 1  7E8             Rx   d 8 03 41 0D 0B 00 00 00 00
 29.510850 1  7E8             Rx   d 8 04 41 10 04 B2 00 00 00
 29.680850 1  7E8             Rx   d 8 03 41 0D 0C 00 00 00 00
 29.710850 1  7E8             Rx   d 8 04 41 10 04 6D 00 00 00
 29.880800 1  7E8             Rx   d 8 03 41 0D 0D 00 00 00 00
 29.910850 1  7E8             Rx   d 8 04 41 10 04 38 00 00 00
 30.000850 1  7E8             Rx   d 8 03 41 05 5C 00 00 00 00
 30.060850 1  7E8             Rx   d 8 04 41 0C 17 BA 00 00 00
 30.090850 1  7E8             Rx   d 8 03 41 0D 0D 00 00 00 00
 30.120850 1  7E8             Rx   d 8 03 41 11 27 00 00 00 00
 30.280900 1  7E8             Rx   d 8 03 41 0D 0E 00 00 00 00
 30.310900 1  7E8             Rx   d 8 04 41 10 04 51 00 00 00
 30.480850 1  7E8             Rx   d 8 03 41 0D 0E 00 00 00 00
 30.510850 1  7E8             Rx   d 8 04 41 10 04 49 00 00 00
 30.680850 1  7E8             Rx   d 8 03 41 0D 0E 00 00 00 00
 30.710850 1  7E8             Rx   d 8 04 41 10 04 5C 00 00 00
 30.880900 1  7E8             Rx   d 8 03 41 0D 0F 00 00 00 00
 30.910900 1  7E8             Rx   d 8 04 41 10 03 C6 00 00 00
 31.000900 1  7E8             Rx   d 8 03 41 05 5C 00 00 00 00
 31.060900 1  7E8             Rx   d 8 04 41 0C 13 E8 00 00 00
 31.090900 1  7E8             Rx   d 8 03 41 0D 0F 00 00 00 00
 31.120900 1  7E8             Rx   d 8 03 41 11 27 00 00 00 00
 31.280900 1  7E8             Rx   d 8 03 41 0D 10 00 00 00 00
 31.310900 1  7E8             Rx   d 8 04 41 10 03 F0 00 00 00
 31.480900 1  7E8             Rx   d 8 03 41 0D 10 00 00 00 00
 31.510900 1  7E8             Rx   d 8 04 41 10 03 EA 00 00 00
 31.680900 1  7E8             Rx   d 8 03 41 0D 11 00 00 00 00
 31.710900 1  7E8             Rx   d 8 04 41 10 04 06 00 00 00
 31.880900 1  7E8             Rx   d 8 03 41 0D 11 00 00 00 00
 31.910900 1  7E8             Rx   d 8 04 41 10 04 1C 00 00 00
 32.000900 1  7E8             Rx   d 8 03 41 05 5C 00 00 00 00
 32.060900 1  7E8             Rx   d 8 04 41 0C 16 46 00 00 00
 32.090900 1  7E8             Rx   d 8 03 41 0D 12 00 00 00 00
 32.120900 1  7E8             Rx   d 8 03 41 11 2A 00 00 00 00
 32.280950 1  7E8             Rx   d 8 03 41 0D 13 00 00 00 00
 32.310950 1  7E8             Rx   d 8 04 41 10 04 43 00 00 00
 32.480900 1  7E8             Rx   d 8 03 41 0D 13 00 00 00 00
 32.510950 1  7E8             Rx   d 8 04 41 10 04 0E 00 00 00
 32.680950 1  7E8             Rx   d 8 03 41 0D 13 00 00 00 00
 32.710950 1  7E8             Rx   d 8 04 41 10 03 ED 00 00 00
 32.880950 1  7E8             Rx   d 8 03 41 0D 14 00 00 00 00
 32.910950 1  7E8             Rx   d 8 04 41 10 03 81 00 00 00
 33.000950 1  7E8             Rx   d 8 03 41 05 5C 00 00 00 00
 33.060950 1  7E8             Rx   d 8 04 41 0C 14 C6 00 00 00
 33.090950 1  7E8             Rx   d 8 03 41 0D 14 00 00 00 00
 33.120950 1  7E8             Rx   d 8 03 41 11 23 00 00 00 00
 33.280950 1  7E8             Rx   d 8 03 41 0D 14 00 00 00 00
 33.310950 1  7E8             Rx   d 8 04 41 10 02 A0 00 00 00
 33.480950 1  7E8             Rx   d 8 03 41 0D 14 00 00 00 00
 33.510950 1  7E8             Rx   d 8 04 41 10 01 D5 00 00 00
 33.680950 1  7E8             Rx   d 8 03 41 0D 14 00 00 00 00
 33.710950 1  7E8             Rx   d 8 04 41 10 01 F3 00 00 00
 33.881000 1  7E8             Rx   d 8 03 41 0D 14 00 00 00 00
 33.911000 1  7E8             Rx   d 8 04 41 10 01 CF 00 00 00
 34.000950 1  7E8             Rx   d 8 03 41 05 5C 00 00 00 00
 34.060950 1  7E8             Rx   d 8 04 41 0C 10 F8 00 00 00
 34.090950 1  7E8             Rx   d 8 03 41 0D 14 00 00 00 00
 34.120950 1  7E8             Rx   d 8 03 41 11 1F 00 00 00 00
 34.281000 1  7E8             Rx   d 8 03 41 0D 14 00 00 00 00
 34.311000 1  7E8             Rx   d 8 04 41 10 01 92 00 00 00
 34.481000 1  7E8             Rx   d 8 03 41 0D 14 00 00 00 00
 34.511000 1  7E8             Rx   d 8 04 41 10 01 10 00 00 00
 34.681000 1  7E8             Rx   d 8 03 41 0D 14 00 00 00 00
 34.711000 1  7E8             Rx   d 8 04 41 10 01 26 00 00 00
 34.881000 1  7E8             Rx   d 8 03 41 0D 13 00 00 00 00
 34.911000 1  7E8             Rx   d 8 04 41 10 01 23 00 00 00
 35.001000 1  7E8             Rx   d 8 03 41 05 5C 00 00 00 00
 35.061000 1  7E8             Rx   d 8 04 41 0C 0F EC 00 00 00
 35.091000 1  7E8             Rx   d 8 03 41 0D 13 00 00 00 00
 35.121000 1  7E8             Rx   d 8 03 41 11 1D 00 00 00 00
 35.281050 1  7E8             Rx   d 8 03 41 0D 13 00 00 00 00
 35.311050 1  7E8             Rx   d 8 04 41 10 01 18 00 00 00
 35.481000 1  7E8             Rx   d 8 03 41 0D 12 00 00 00 00
 35.511000 1  7E8             Rx   d 8 04 41 10 01 07 00 00 00
 35.681050 1  7E8             Rx   d 8 03 41 0D 12 00 00 00 00
 35.711000 1  7E8             Rx   d 8 04 41 10 01 07 00 00 00
 35.881050 1  7E8             Rx   d 8 03 41 0D 11 00 00 00 00
 35.911050 1  7E8             Rx   d 8 04 41 10 00 FC 00 00 00
 36.001050 1  7E8             Rx   d 8 03 41 05 5C 00 00 00 00
 36.061050 1  7E8             Rx   d 8 04 41 0C 0E 54 00 00 00
 36.091050 1  7E8             Rx   d 8 03 41 0D 11 00 00 00 00
 36.121050 1  7E8             Rx   d 8 03 41 11 1C 00 00 00 00
 36.281050 1  7E8             Rx   d 8 03 41 0D 11 00 00 00 00
 36.311050 1  7E8             Rx   d 8 04 41 10 00 FF 00 00 00
 36.481050 1  7E8             Rx   d 8 03 41 0D 10 00 00 00 00
 36.511050 1  7E8             Rx   d 8 04 41 10 00 F1 00 00 00
 36.681050 1  7E8             Rx   d 8 03 41 0D 0F 00 00 00 00
 36.711050 1  7E8             Rx   d 8 04 41 10 01 B4 00 00 00
 36.881050 1  7E8             Rx   d 8 03 41 0D 0F 00 00 00 00
 36.911050 1  7E8             Rx   d 8 04 41 10 02 5A 00 00 00
 37.001050 1  7E8             Rx   d 8 03 41 05 5C 00 00 00 00
 37.061050 1  7E8             Rx   d 8 04 41 0C 12 90 00 00 00
 37.091050 1  7E8             Rx   d 8 03 41 0D 0F 00 00 00 00
 37.121050 1  7E8             Rx   d 8 03 41 11 25 00 00 00 00
 37.281100 1  7E8             Rx   d 8 03 41 0D 0F 00 00 00 00
 37.311100 1  7E8             Rx   d 8 04 41 10 02 BE 00 00 00
 37.481050 1  7E8             Rx   d 8 03 41 0D 0F 00 00 00 00
 37.511050 1  7E8             Rx   d 8 04 41 10 04 7B 00 00 00
 37.681100 1  7E8             Rx   d 8 03 41 0D 0F 00 00 00 00
 37.711100 1  7E8             Rx   d 8 04 41 10 05 DB 00 00 00
 37.881100 1  7E8             Rx   d 8 03 41 0D 10 00 00 00 00
 37.911100 1  7E8             Rx   d 8 04 41 10 06 0D 00 00 00
 38.001100 1  7E8             Rx   d 8 03 41 05 5D 00 00 00 00
 38.061100 1  7E8             Rx   d 8 04 41 0C 17 EE 00 00 00
 38.091100 1  7E8             Rx   d 8 03 41 0D 11 00 00 00 00
 38.121100 1  7E8             Rx   d 8 03 41 11 37 00 00 00 00
 38.281100 1  7E8             Rx   d 8 03 41 0D 12 00 00 00 00
 38.311100 1  7E8             Rx   d 8 04 41 10 06 69 00 00 00
 38.481100 1  7E8             Rx   d 8 03 41 0D 13 00 00 00 00
 38.511150 1  7E8             Rx   d 8 04 41 10 05 FA 00 00 00
 38.681100 1  7E8             Rx   d 8 03 41 0D 14 00 00 00 00
 38.711100 1  7E8             Rx   d 8 04 41 10 04 38 00 00 00
 38.881150 1  7E8             Rx   d 8 03 41 0D 14 00 00 00 00
 38.911150 1  7E8             Rx   d 8 04 41 10 01 0D 00 00 00
 39.001100 1  7E8             Rx   d 8 03 41 05 5D 00 00 00 00
 39.061100 1  7E8             Rx   d 8 04 41 0C 19 58 00 00 00
 39.091100 1  7E8             Rx   d 8 03 41 0D 15 00 00 00 00
 39.121100 1  7E8             Rx   d 8 03 41 11 1E 00 00 00 00
 39.281150 1  7E8             Rx   d 8 03 41 0D 15 00 00 00 00
 39.311150 1  7E8             Rx   d 8 04 41 10 01 A0 00 00 00
 39.481150 1  7E8             Rx   d 8 03 41 0D 15 00 00 00 00
 39.511150 1  7E8             Rx   d 8 04 41 10 01 A0 00 00 00
 39.681150 1  7E8             Rx   d 8 03 41 0D 14 00 00 00 00
 39.711150 1  7E8             Rx   d 8 04 41 10 01 76 00 00 00
 39.881150 1  7E8             Rx   d 8 03 41 0D 14 00 00 00 00
 39.911150 1  7E8             Rx   d 8 04 41 10 01 4A 00 00 00
 40.001150 1  7E8             Rx   d 8 03 41 05 5D 00 00 00 00
 40.061150 1  7E8             Rx   d 8 04 41 0C 0F 7E 00 00 00
 40.091150 1  7E8             Rx   d 8 03 41 0D 14 00 00 00 00
 40.121150 1  7E8             Rx   d 8 03 41 11 1C 00 00 00 00
 40.281200 1  7E8             Rx   d 8 03 41 0D 13 00 00 00 00
 40.311200 1  7E8             Rx   d 8 04 41 10 01 0D 00 00 00
 40.481150 1  7E8             Rx   d 8 03 41 0D 12 00 00 00 00
 40.511200 1  7E8             Rx   d 8 04 41 10 00 F1 00 00 00
 40.681200 1  7E8             Rx   d 8 03 41 0D 11 00 00 00 00
 40.711200 1  7E8             Rx   d 8 04 41 10 01 05 00 00 00
 40.881200 1  7E8             Rx   d 8 03 41 0D 11 00 00 00 00
 40.911200 1  7E8             Rx   d 8 04 41 10 00 EE 00 00 00
 41.001200 1  7E8             Rx   d 8 03 41 05 5D 00 00 00 00
 41.061200 1  7E8             Rx   d 8 04 41 0C 0F A6 00 00 00
 41.091200 1  7E8             Rx   d 8 03 41 0D 10 00 00 00 00
 41.121200 1  7E8             Rx   d 8 03 41 11 1C 00 00 00 00
 41.281200 1  7E8             Rx   d 8 03 41 0D 10 00 00 00 00
 41.311200 1  7E8             Rx   d 8 04 41 10 01 0D 00 00 00
 41.481250 1  7E8             Rx   d 8 03 41 0D 0F 00 00 00 00
 41.511250 1  7E8             Rx   d 8 04 41 10 01 37 00 00 00
 41.681200 1  7E8             Rx   d 8 03 41 0D 0F 00 00 00 00
 41.711200 1  7E8             Rx   d 8 04 41 10 01 1E 00 00 00
 41.881200 1  7E8             Rx   d 8 03 41 0D 0F 00 00 00 00
 41.911200 1  7E8             Rx   d 8 04 41 10 01 1B 00 00 00
 42.001200 1  7E8             Rx   d 8 03 41 05 5D 00 00 00 00
 42.061200 1  7E8             Rx   d 8 04 41 0C 11 FE 00 00 00
 42.091200 1  7E8             Rx   d 8 03 41 0D 0F 00 00 00 00
 42.121200 1  7E8             Rx   d 8 03 41 11 20 00 00 00 00
 42.281250 1  7E8             Rx   d 8 03 41 0D 0E 00 00 00 00
 42.311250 1  7E8             Rx   d 8 04 41 10 02 81 00 00 00
 42.481250 1  7E8             Rx   d 8 03 41 0D 0F 00 00 00 00
 42.511250 1  7E8             Rx   d 8 04 41 10 03 5A 00 00 00
 42.681250 1  7E8             Rx   d 8 03 41 0D 0E 00 00 00 00
 42.711250 1  7E8             Rx   d 8 04 41 10 04 75 00 00 00
 42.881250 1  7E8             Rx   d 8 03 41 0D 0F 00 00 00 00
 42.911250 1  7E8             Rx   d 8 04 41 10 05 A7 00 00 00
 43.001250 1  7E8             Rx   d 8 03 41 05 5E 00 00 00 00
 43.061250 1  7E8             Rx   d 8 04 41 0C 18 B8 00 00 00
 43.091250 1  7E8             Rx   d 8 03 41 0D 10 00 00 00 00
 43.121250 1  7E8             Rx   d 8 03 41 11 30 00 00 00 00
 43.281300 1  7E8             Rx   d 8 03 41 0D 10 00 00 00 00
 43.311250 1  7E8             Rx   d 8 04 41 10 06 4D 00 00 00
 43.481300 1  7E8             Rx   d 8 03 41 0D 11 00 00 00 00
 43.511300 1  7E8             Rx   d 8 04 41 10 06 96 00 00 00
 43.681250 1  7E8             Rx   d 8 03 41 0D 12 00 00 00 00
 43.711250 1  7E8             Rx   d 8 04 41 10 07 47 00 00 00
 43.881300 1  7E8             Rx   d 8 03 41 0D 13 00 00 00 00
 43.911300 1  7E8             Rx   d 8 04 41 10 07 4A 00 00 00
 44.001300 1  7E8             Rx   d 8 03 41 05 5E 00 00 00 00
 44.061250 1  7E8             Rx   d 8 04 41 0C 1A 42 00 00 00
 44.091250 1  7E8             Rx   d 8 03 41 0D 14 00 00 00 00
 44.121250 1  7E8             Rx   d 8 03 41 11 35 00 00 00 00
 44.281300 1  7E8             Rx   d 8 03 41 0D 15 00 00 00 00
 44.311300 1  7E8             Rx   d 8 04 41 10 05 A1 00 00 00
 44.481300 1  7E8             Rx   d 8 03 41 0D 16 00 00 00 00
 44.511300 1  7E8             Rx   d 8 04 41 10 05 8E 00 00 00
 44.681300 1  7E8             Rx   d 8 03 41 0D 16 00 00 00 00
 44.711300 1  7E8             Rx   d 8 04 41 10 05 48 00 00 00
 44.881300 1  7E8             Rx   d 8 03 41 0D 17 00 00 00 00
 44.911300 1  7E8             Rx   d 8 04 41 10 05 08 00 00 00
 45.001300 1  7E8             Rx   d 8 03 41 05 5E 00 00 00 00
 45.061300 1  7E8             Rx   d 8 04 41 0C 14 24 00 00 00
 45.091300 1  7E8             Rx   d 8 03 41 0D 17 00 00 00 00
 45.121300 1  7E8             Rx   d 8 03 41 11 2F 00 00 00 00
 45.281350 1  7E8             Rx   d 8 03 41 0D 18 00 00 00 00
 45.311350 1  7E8             Rx   d 8 04 41 10 05 0E 00 00 00
 45.481350 1  7E8             Rx   d 8 03 41 0D 18 00 00 00 00
 45.511350 1  7E8             Rx   d 8 04 41 10 05 0E 00 00 00
 45.681350 1  7E8             Rx   d 8 03 41 0D 19 00 00 00 00
 45.711350 1  7E8             Rx   d 8 04 41 10 02 D2 00 00 00
 45.881350 1  7E8             Rx   d 8 03 41 0D 19 00 00 00 00
 45.911350 1  7E8             Rx   d 8 04 41 10 02 33 00 00 00
 46.001350 1  7E8             Rx   d 8 03 41 05 5E 00 00 00 00
 46.061350 1  7E8             Rx   d 8 04 41 0C 15 B8 00 00 00
 46.091350 1  7E8             Rx   d 8 03 41 0D 19 00 00 00 00
 46.121350 1  7E8             Rx   d 8 03 41 11 1D 00 00 00 00
 46.281350 1  7E8             Rx   d 8 03 41 0D 19 00 00 00 00
 46.311350 1  7E8             Rx   d 8 04 41 10 01 BF 00 00 00
 46.481400 1  7E8             Rx   d 8 03 41 0D 19 00 00 00 00
 46.511400 1  7E8             Rx   d 8 04 41 10 01 76 00 00 00
 46.681350 1  7E8             Rx   d 8 03 41 0D 19 00 00 00 00
 46.711350 1  7E8             Rx   d 8 04 41 10 01 63 00 00 00
 46.881350 1  7E8             Rx   d 8 03 41 0D 18 00 00 00 00
 46.911350 1  7E8             Rx   d 8 04 41 10 01 60 00 00 00
 47.001350 1  7E8             Rx   d 8 03 41 05 5E 00 00 00 00
 47.061350 1  7E8             Rx   d 8 04 41 0C 13 30 00 00 00
 47.091350 1  7E8             Rx   d 8 03 41 0D 18 00 00 00 00
 47.121350 1  7E8             Rx   d 8 03 41 11 1E 00 00 00 00
 47.281400 1  7E8             Rx   d 8 03 41 0D 17 00 00 00 00
 47.311400 1  7E8             Rx   d 8 04 41 10 01 44 00 00 00
 47.481400 1  7E8             Rx   d 8 03 41 0D 15 00 00 00 00
 47.511400 1  7E8             Rx   d 8 04 41 10 01 39 00 00 00
 47.681400 1  7E8             Rx   d 8 03 41 0D 14 00 00 00 00
 47.711400 1  7E8             Rx   d 8 04 41 10 01 31 00 00 00
 47.881400 1  7E8             Rx   d 8 03 41 0D 13 00 00 00 00
 47.911400 1  7E8             Rx   d 8 04 41 10 01 0D 00 00 00
 48.001400 1  7E8             Rx   d 8 03 41 05 5F 00 00 00 00
 48.061400 1  7E8             Rx   d 8 04 41 0C 0E 2E 00 00 00
 48.091400 1  7E8             Rx   d 8 03 41 0D 12 00 00 00 00
 48.121400 1  7E8             Rx   d 8 03 41 11 1C 00 00 00 00
 48.281450 1  7E8             Rx   d 8 03 41 0D 11 00 00 00 00
 48.311450 1  7E8             Rx   d 8 04 41 10 00 F9 00 00 00
 48.481450 1  7E8             Rx   d 8 03 41 0D 10 00 00 00 00
 48.511450 1  7E8             Rx   d 8 04 41 10 01 4A 00 00 00
 48.681400 1  7E8             Rx   d 8 03 41 0D 0E 00 00 00 00
 48.711400 1  7E8             Rx   d 8 04 41 10 01 4A 00 00 00
 48.881450 1  7E8             Rx   d 8 03 41 0D 0D 00 00 00 00
 48.911450 1  7E8             Rx   d 8 04 41 10 01 44 00 00 00
 49.001450 1  7E8             Rx   d 8 03 41 05 5F 00 00 00 00
 49.061450 1  7E8             Rx   d 8 04 41 0C 0C BA 00 00 00
 49.091450 1  7E8             Rx   d 8 03 41 0D 0C 00 00 00 00
 49.121400 1  7E8             Rx   d 8 03 41 11 1D 00 00 00 00
 49.281450 1  7E8             Rx   d 8 03 41 0D 0B 00 00 00 00
 49.311450 1  7E8             Rx   d 8 04 41 10 01 50 00 00 00
 49.481450 1  7E8             Rx   d 8 03 41 0D 0B 00 00 00 00
 49.511450 1  7E8             Rx   d 8 04 41 10 01 50 00 00 00
 49.681450 1  7E8             Rx   d 8 03 41 0D 0B 00 00 00 00
 49.711450 1  7E8             Rx   d 8 04 41 10 01 50 00 00 00
 49.881450 1  7E8             Rx   d 8 03 41 0D 0A 00 00 00 00
 49.911450 1  7E8             Rx   d 8 04 41 10 01 50 00 00 00
 50.001450 1  7E8             Rx   d 8 03 41 05 5F 00 00 00 00
 50.061450 1  7E8             Rx   d 8 04 41 0C 0C AE 00 00 00
 50.091450 1  7E8             Rx   d 8 03 41 0D 09 00 00 00 00
 50.121450 1  7E8             Rx   d 8 03 41 11 1D 00 00 00 00
 50.281500 1  7E8             Rx   d 8 03 41 0D 08 00 00 00 00
 50.311500 1  7E8             Rx   d 8 04 41 10 01 47 00 00 00
 50.481500 1  7E8             Rx   d 8 03 41 0D 07 00 00 00 00
 50.511500 1  7E8             Rx   d 8 04 41 10 01 3C 00 00 00
 50.681500 1  7E8             Rx   d 8 03 41 0D 06 00 00 00 00
 50.711500 1  7E8             Rx   d 8 04 41 10 01 31 00 00 00
 50.881500 1  7E8             Rx   d 8 03 41 0D 05 00 00 00 00
 50.911500 1  7E8             Rx   d 8 04 41 10 01 39 00 00 00
 51.001500 1  7E8             Rx   d 8 03 41 05 5F 00 00 00 00
 51.061500 1  7E8             Rx   d 8 04 41 0C 0C 66 00 00 00
 51.091500 1  7E8             Rx   d 8 03 41 0D 04 00 00 00 00
 51.121500 1  7E8             Rx   d 8 03 41 11 1D 00 00 00 00
 51.281500 1  7E8             Rx   d 8 03 41 0D 03 00 00 00 00
 51.311500 1  7E8             Rx   d 8 04 41 10 01 39 00 00 00
 51.481550 1  7E8             Rx   d 8 03 41 0D 02 00 00 00 00
 51.511550 1  7E8             Rx   d 8 04 41 10 01 A6 00 00 00
 51.681550 1  7E8             Rx   d 8 03 41 0D 02 00 00 00 00
 51.711500 1  7E8             Rx   d 8 04 41 10 01 79 00 00 00
 51.881550 1  7E8             Rx   d 8 03 41 0D 02 00 00 00 00
 51.911500 1  7E8             Rx   d 8 04 41 10 01 E8 00 00 00
 52.001500 1  7E8             Rx   d 8 03 41 05 60 00 00 00 00
 52.061500 1  7E8             Rx   d 8 04 41 0C 0C A6 00 00 00
 52.091550 1  7E8             Rx   d 8 03 41 0D 03 00 00 00 00
 52.121500 1  7E8             Rx   d 8 03 41 11 1F 00 00 00 00
 52.281600 1  7E8             Rx   d 8 03 41 0D 03 00 00 00 00
 52.311550 1  7E8             Rx   d 8 04 41 10 01 4D 00 00 00
 52.481550 1  7E8             Rx   d 8 03 41 0D 03 00 00 00 00
 52.511550 1  7E8             Rx   d 8 04 41 10 02 55 00 00 00
 52.681550 1  7E8             Rx   d 8 03 41 0D 03 00 00 00 00
 52.711550 1  7E8             Rx   d 8 04 41 10 03 12 00 00 00
 52.881550 1  7E8             Rx   d 8 03 41 0D 04 00 00 00 00
 52.911550 1  7E8             Rx   d 8 04 41 10 03 91 00 00 00
 53.001550 1  7E8             Rx   d 8 03 41 05 60 00 00 00 00
 53.061550 1  7E8             Rx   d 8 04 41 0C 13 6A 00 00 00
 53.091550 1  7E8             Rx   d 8 03 41 0D 05 00 00 00 00
 53.121550 1  7E8             Rx   d 8 03 41 11 26 00 00 00 00
 53.281600 1  7E8             Rx   d 8 03 41 0D 06 00 00 00 00
 53.311600 1  7E8             Rx   d 8 04 41 10 03 B3 00 00 00
 53.481600 1  7E8             Rx   d 8 03 41 0D 07 00 00 00 00
 53.511600 1  7E8             Rx   d 8 04 41 10 03 A8 00 00 00
 53.681600 1  7E8             Rx   d 8 03 41 0D 08 00 00 00 00
 53.711600 1  7E8             Rx   d 8 04 41 10 03 D1 00 00 00
 53.881600 1  7E8             Rx   d 8 03 41 0D 08 00 00 00 00
 53.911600 1  7E8             Rx   d 8 04 41 10 03 F3 00 00 00
 54.001600 1  7E8             Rx   d 8 03 41 05 60 00 00 00 00
 54.061600 1  7E8             Rx   d 8 04 41 0C 15 02 00 00 00
 54.091600 1  7E8             Rx   d 8 03 41 0D 09 00 00 00 00
 54.121600 1  7E8             Rx   d 8 03 41 11 28 00 00 00 00
 54.281600 1  7E8             Rx   d 8 03 41 0D 0A 00 00 00 00
 54.311600 1  7E8             Rx   d 8 04 41 10 04 80 00 00 00
 54.481600 1  7E8             Rx   d 8 03 41 0D 0B 00 00 00 00
 54.511600 1  7E8             Rx   d 8 04 41 10 04 7B 00 00 00
 54.681650 1  7E8             Rx   d 8 03 41 0D 0C 00 00 00 00
 54.711600 1  7E8             Rx   d 8 04 41 10 04 BD 00 00 00
 54.881600 1  7E8             Rx   d 8 03 41 0D 0D 00 00 00 00
 54.911600 1  7E8             Rx   d 8 04 41 10 04 BD 00 00 00
 55.001600 1  7E8             Rx   d 8 03 41 05 60 00 00 00 00
 55.061600 1  7E8             Rx   d 8 04 41 0C 19 44 00 00 00
 55.091600 1  7E8             Rx   d 8 03 41 0D 0D 00 00 00 00
 55.121600 1  7E8             Rx   d 8 03 41 11 2A 00 00 00 00
 55.281650 1  7E8             Rx   d 8 03 41 0D 0E 00 00 00 00
 55.311650 1  7E8             Rx   d 8 04 41 10 05 C0 00 00 00
 55.481650 1  7E8             Rx   d 8 03 41 0D 0E 00 00 00 00
 55.511650 1  7E8             Rx   d 8 04 41 10 05 DB 00 00 00
 55.681650 1  7E8             Rx   d 8 03 41 0D 0F 00 00 00 00
 55.711650 1  7E8             Rx   d 8 04 41 10 05 D9 00 00 00
 55.881650 1  7E8             Rx   d 8 03 41 0D 10 00 00 00 00
 55.911650 1  7E8             Rx   d 8 04 41 10 05 C2 00 00 00
 56.001650 1  7E8             Rx   d 8 03 41 05 60 00 00 00 00
 56.061650 1  7E8             Rx   d 8 04 41 0C 16 52 00 00 00
 56.091650 1  7E8             Rx   d 8 03 41 0D 11 00 00 00 00
 56.121650 1  7E8             Rx   d 8 03 41 11 36 00 00 00 00
 56.281700 1  7E8             Rx   d 8 03 41 0D 12 00 00 00 00
 56.311650 1  7E8             Rx   d 8 04 41 10 06 05 00 00 00
 56.481700 1  7E8             Rx   d 8 03 41 0D 13 00 00 00 00
 56.511700 1  7E8             Rx   d 8 04 41 10 06 6F 00 00 00
 56.681700 1  7E8             Rx   d 8 03 41 0D 14 00 00 00 00
 56.711700 1  7E8             Rx   d 8 04 41 10 06 88 00 00 00
 56.881700 1  7E8             Rx   d 8 03 41 0D 14 00 00 00 00
 56.911700 1  7E8             Rx   d 8 04 41 10 06 B7 00 00 00
 57.001650 1  7E8             Rx   d 8 03 41 05 61 00 00 00 00
 57.061700 1  7E8             Rx   d 8 04 41 0C 1A B4 00 00 00
 57.091700 1  7E8             Rx   d 8 03 41 0D 15 00 00 00 00
 57.121650 1  7E8             Rx   d 8 03 41 11 35 00 00 00 00
 57.281700 1  7E8             Rx   d 8 03 41 0D 16 00 00 00 00
 57.311700 1  7E8             Rx   d 8 04 41 10 06 A3 00 00 00
 57.481700 1  7E8             Rx   d 8 03 41 0D 17 00 00 00 00
 57.511700 1  7E8             Rx   d 8 04 41 10 06 71 00 00 00
 57.681750 1  7E8             Rx   d 8 03 41 0D 17 00 00 00 00
 57.711750 1  7E8             Rx   d 8 04 41 10 06 10 00 00 00
 57.881700 1  7E8             Rx   d 8 03 41 0D 18 00 00 00 00
 57.911700 1  7E8             Rx   d 8 04 41 10 06 00 00 00 00
 58.001700 1  7E8             Rx   d 8 03 41 05 61 00 00 00 00
 58.061700 1  7E8             Rx   d 8 04 41 0C 15 02 00 00 00
 58.091750 1  7E8             Rx   d 8 03 41 0D 19 00 00 00 00
 58.121750 1  7E8             Rx   d 8 03 41 11 35 00 00 00 00
 58.281750 1  7E8             Rx   d 8 03 41 0D 1A 00 00 00 00
 58.311750 1  7E8             Rx   d 8 04 41 10 06 50 00 00 00
 58.481750 1  7E8             Rx   d 8 03 41 0D 1B 00 00 00 00
 58.511750 1  7E8             Rx   d 8 04 41 10 06 45 00 00 00
 58.681750 1  7E8             Rx   d 8 03 41 0D 1B 00 00 00 00
 58.711750 1  7E8             Rx   d 8 04 41 10 06 69 00 00 00
 58.881750 1  7E8             Rx   d 8 03 41 0D 1C 00 00 00 00
 58.911750 1  7E8             Rx   d 8 04 41 10 06 61 00 00 00
 59.001750 1  7E8             Rx   d 8 03 41 05 61 00 00 00 00
 59.061750 1  7E8             Rx   d 8 04 41 0C 16 CC 00 00 00
 59.091750 1  7E8             Rx   d 8 03 41 0D 1D 00 00 00 00
 59.121750 1  7E8             Rx   d 8 03 41 11 32 00 00 00 00
 59.281800 1  7E8             Rx   d 8 03 41 0D 1D 00 00 00 00
 59.311800 1  7E8             Rx   d 8 04 41 10 06 13 00 00 00
 59.481800 1  7E8             Rx   d 8 03 41 0D 1E 00 00 00 00
 59.511750 1  7E8             Rx   d 8 04 41 10 05 88 00 00 00
 59.681800 1  7E8             Rx   d 8 03 41 0D 1E 00 00 00 00
 59.711800 1  7E8             Rx   d 8 04 41 10 05 61 00 00 00
 59.881800 1  7E8             Rx   d 8 03 41 0D 1F 00 00 00 00
 59.911750 1  7E8             Rx   d 8 04 41 10 05 9C 00 00 00
 60.001750 1  7E8             Rx   d 8 03 41 05 61 00 00 00 00
 60.061800 1  7E8             Rx   d 8 04 41 0C 12 CE 00 00 00
 60.091800 1  7E8             Rx   d 8 03 41 0D 20 00 00 00 00
 60.121800 1  7E8             Rx   d 8 03 41 11 36 00 00 00 00
 60.281800 1  7E8             Rx   d 8 03 41 0D 21 00 00 00 00
 60.311800 1  7E8             Rx   d 8 04 41 10 05 F4 00 00 00
 60.481800 1  7E8             Rx   d 8 03 41 0D 21 00 00 00 00
 60.511800 1  7E8             Rx   d 8 04 41 10 06 0D 00 00 00
 60.681800 1  7E8             Rx   d 8 03 41 0D 22 00 00 00 00
 60.711800 1  7E8             Rx   d 8 04 41 10 06 1E 00 00 00
 60.881850 1  7E8             Rx   d 8 03 41 0D 22 00 00 00 00
 60.911800 1  7E8             Rx   d 8 04 41 10 06 24 00 00 00
 61.001850 1  7E8             Rx   d 8 03 41 05 61 00 00 00 00
 61.061800 1  7E8             Rx   d 8 04 41 0C 14 BA 00 00 00
 61.091800 1  7E8             Rx   d 8 03 41 0D 23 00 00 00 00
 61.121800 1  7E8             Rx   d 8 03 41 11 37 00 00 00 00
 61.281850 1  7E8             Rx   d 8 03 41 0D 24 00 00 00 00
 61.311850 1  7E8             Rx   d 8 04 41 10 06 05 00 00 00
 61.481850 1  7E8             Rx   d 8 03 41 0D 24 00 00 00 00
 61.511850 1  7E8             Rx   d 8 04 41 10 06 10 00 00 00
 61.681850 1  7E8             Rx   d 8 03 41 0D 25 00 00 00 00
 61.711850 1  7E8             Rx   d 8 04 41 10 06 02 00 00 00
 61.881850 1  7E8             Rx   d 8 03 41 0D 26 00 00 00 00
 61.911850 1  7E8             Rx   d 8 04 41 10 06 0B 00 00 00
 62.001850 1  7E8             Rx   d 8 03 41 05 61 00 00 00 00
 62.061850 1  7E8             Rx   d 8 04 41 0C 16 62 00 00 00
 62.091850 1  7E8             Rx   d 8 03 41 0D 26 00 00 00 00
 62.121850 1  7E8             Rx   d 8 03 41 11 35 00 00 00 00
 62.281900 1  7E8             Rx   d 8 03 41 0D 27 00 00 00 00
 62.311900 1  7E8             Rx   d 8 04 41 10 06 08 00 00 00
 62.481850 1  7E8             Rx   d 8 03 41 0D 27 00 00 00 00
 62.511850 1  7E8             Rx   d 8 04 41 10 05 DE 00 00 00
 62.681900 1  7E8             Rx   d 8 03 41 0D 27 00 00 00 00
 62.711900 1  7E8             Rx   d 8 04 41 10 06 08 00 00 00
 62.881900 1  7E8             Rx   d 8 03 41 0D 28 00 00 00 00
 62.911900 1  7E8             Rx   d 8 04 41 10 05 B5 00 00 00
 63.001900 1  7E8             Rx   d 8 03 41 05 61 00 00 00 00
 63.061900 1  7E8             Rx   d 8 04 41 0C 10 CE 00 00 00
 63.091900 1  7E8             Rx   d 8 03 41 0D 28 00 00 00 00
 63.121900 1  7E8             Rx   d 8 03 41 11 34 00 00 00 00
 63.281900 1  7E8             Rx   d 8 03 41 0D 28 00 00 00 00
 63.311900 1  7E8             Rx   d 8 04 41 10 05 4B 00 00 00
 63.481900 1  7E8             Rx   d 8 03 41 0D 29 00 00 00 00
 63.511900 1  7E8             Rx   d 8 04 41 10 05 4E 00 00 00
 63.681900 1  7E8             Rx   d 8 03 41 0D 29 00 00 00 00
 63.711900 1  7E8             Rx   d 8 04 41 10 05 35 00 00 00
 63.881900 1  7E8             Rx   d 8 03 41 0D 29 00 00 00 00
 63.911900 1  7E8             Rx   d 8 04 41 10 05 1F 00 00 00
 64.001900 1  7E8             Rx   d 8 03 41 05 61 00 00 00 00
 64.061900 1  7E8             Rx   d 8 04 41 0C 11 26 00 00 00
 64.091900 1  7E8             Rx   d 8 03 41 0D 2A 00 00 00 00
 64.121900 1  7E8             Rx   d 8 03 41 11 32 00 00 00 00
 64.281950 1  7E8             Rx   d 8 03 41 0D 2A 00 00 00 00
 64.311950 1  7E8             Rx   d 8 04 41 10 05 06 00 00 00
 64.481950 1  7E8             Rx   d 8 03 41 0D 2A 00 00 00 00
 64.511950 1  7E8             Rx   d 8 04 41 10 04 C3 00 00 00
 64.681950 1  7E8             Rx   d 8 03 41 0D 2B 00 00 00 00
 64.711950 1  7E8             Rx   d 8 04 41 10 04 BB 00 00 00
 64.881950 1  7E8             Rx   d 8 03 41 0D 2B 00 00 00 00
 64.911950 1  7E8             Rx   d 8 04 41 10 04 B5 00 00 00
 65.001950 1  7E8             Rx   d 8 03 41 05 62 00 00 00 00
 65.061950 1  7E8             Rx   d 8 04 41 0C 11 D8 00 00 00
 65.091950 1  7E8             Rx   d 8 03 41 0D 2B 00 00 00 00
 65.121950 1  7E8             Rx   d 8 03 41 11 2F 00 00 00 00
 65.282000 1  7E8             Rx   d 8 03 41 0D 2B 00 00 00 00
 65.312000 1  7E8             Rx   d 8 04 41 10 04 B8 00 00 00
 65.482000 1  7E8             Rx   d 8 03 41 0D 2C 00 00 00 00
 65.511950 1  7E8             Rx   d 8 04 41 10 04 9F 00 00 00
 65.681950 1  7E8             Rx   d 8 03 41 0D 2C 00 00 00 00
 65.711950 1  7E8             Rx   d 8 04 41 10 04 AA 00 00 00
 65.882000 1  7E8             Rx   d 8 03 41 0D 2C 00 00 00 00
 65.912000 1  7E8             Rx   d 8 04 41 10 04 67 00 00 00
 66.002000 1  7E8             Rx   d 8 03 41 05 62 00 00 00 00
 66.062000 1  7E8             Rx   d 8 04 41 0C 11 F8 00 00 00
 66.091950 1  7E8             Rx   d 8 03 41 0D 2C 00 00 00 00
 66.121950 1  7E8             Rx   d 8 03 41 11 23 00 00 00 00
 66.282000 1  7E8             Rx   d 8 03 41 0D 2C 00 00 00 00
 66.312000 1  7E8             Rx   d 8 04 41 10 01 CA 00 00 00
 66.482000 1  7E8             Rx   d 8 03 41 0D 2C 00 00 00 00
 66.512000 1  7E8             Rx   d 8 04 41 10 01 E8 00 00 00
 66.682000 1  7E8             Rx   d 8 03 41 0D 2C 00 00 00 00
 66.712000 1  7E8             Rx   d 8 04 41 10 01 E6 00 00 00
 66.882000 1  7E8             Rx   d 8 03 41 0D 2C 00 00 00 00
 66.912000 1  7E8             Rx   d 8 04 41 10 01 C4 00 00 00
 67.002000 1  7E8             Rx   d 8 03 41 05 62 00 00 00 00
 67.062000 1  7E8             Rx   d 8 04 41 0C 11 F2 00 00 00
 67.092000 1  7E8             Rx   d 8 03 41 0D 2C 00 00 00 00
 67.122000 1  7E8             Rx   d 8 03 41 11 1E 00 00 00 00
 67.282050 1  7E8             Rx   d 8 03 41 0D 2C 00 00 00 00
 67.312050 1  7E8             Rx   d 8 04 41 10 01 66 00 00 00
 67.482050 1  7E8             Rx   d 8 03 41 0D 2C 00 00 00 00
 67.512050 1  7E8             Rx   d 8 04 41 10 01 50 00 00 00
 67.682050 1  7E8             Rx   d 8 03 41 0D 2C 00 00 00 00
 67.712050 1  7E8             Rx   d 8 04 41 10 01 39 00 00 00
 67.882050 1  7E8             Rx   d 8 03 41 0D 2C 00 00 00 00
 67.912050 1  7E8             Rx   d 8 04 41 10 01 39 00 00 00
 68.002050 1  7E8             Rx   d 8 03 41 05 63 00 00 00 00
 68.062050 1  7E8             Rx   d 8 04 41 0C 12 08 00 00 00
 68.092050 1  7E8             Rx   d 8 03 41 0D 2C 00 00 00 00
 68.122050 1  7E8             Rx   d 8 03 41 11 1D 00 00 00 00
 68.282050 1  7E8             Rx   d 8 03 41 0D 2C 00 00 00 00
 68.312050 1  7E8             Rx   d 8 04 41 10 01 44 00 00 00
 68.482100 1  7E8             Rx   d 8 03 41 0D 2C 00 00 00 00
 68.512100 1  7E8             Rx   d 8 04 41 10 01 37 00 00 00
 68.682050 1  7E8             Rx   d 8 03 41 0D 2C 00 00 00 00
 68.712050 1  7E8             Rx   d 8 04 41 10 01 37 00 00 00
 68.882100 1  7E8             Rx   d 8 03 41 0D 2C 00 00 00 00
 68.912050 1  7E8             Rx   d 8 04 41 10 01 26 00 00 00
 69.002200 1  7E8             Rx   d 8 03 41 05 63 00 00 00 00
 69.062050 1  7E8             Rx   d 8 04 41 0C 11 B6 00 00 00
 69.092050 1  7E8             Rx   d 8 03 41 0D 2C 00 00 00 00
 69.122050 1  7E8             Rx   d 8 03 41 11 1D 00 00 00 00
 69.282100 1  7E8             Rx   d 8 03 41 0D 2C 00 00 00 00
 69.312100 1  7E8             Rx   d 8 04 41 10 01 20 00 00 00
 69.482100 1  7E8             Rx   d 8 04 41 0C 11 BC 00 00 00
 69.512100 1  7E8             Rx   d 8 04 41 10 01 1B 00 00 00
 69.542100 1  7E8             Rx   d 8 03 41 11 1C 00 00 00 00
 69.682100 1  7E8             Rx   d 8 04 41 0C 11 A6 00 00 00
 69.712100 1  7E8             Rx   d 8 04 41 10 01 18 00 00 00
 69.742100 1  7E8             Rx   d 8 03 41 11 1C 00 00 00 00
 69.882100 1  7E8             Rx   d 8 04 41 0C 11 92 00 00 00
 69.912100 1  7E8             Rx   d 8 04 41 10 01 1B 00 00 00
 69.942100 1  7E8             Rx   d 8 03 41 11 1C 00 00 00 00
 70.002100 1  7E8             Rx   d 8 03 41 05 63 00 00 00 00
 70.062100 1  7E8             Rx   d 8 04 41 0C 11 7A 00 00 00
 70.102100 1  7E8             Rx   d 8 03 41 0D 2B 00 00 00 00
 70.122100 1  7E8             Rx   d 8 03 41 11 1C 00 00 00 00
 70.282150 1  7E8             Rx   d 8 03 41 0D 2B 00 00 00 00
 70.322150 1  7E8             Rx   d 8 04 41 10 01 1B 00 00 00
 70.492100 1  7E8             Rx   d 8 03 41 0D 2B 00 00 00 00
 70.522150 1  7E8             Rx   d 8 04 41 10 01 1E 00 00 00
 70.682100 1  7E8             Rx   d 8 03 41 0D 2B 00 00 00 00
 70.722150 1  7E8             Rx   d 8 04 41 10 01 15 00 00 00
 70.882150 1  7E8             Rx   d 8 03 41 0D 2B 00 00 00 00
 70.922150 1  7E8             Rx   d 8 04 41 10 01 18 00 00 00
 71.002150 1  7E8             Rx   d 8 03 41 05 63 00 00 00 00
 71.062150 1  7E8             Rx   d 8 04 41 0C 10 FA 00 00 00
 71.102150 1  7E8             Rx   d 8 03 41 0D 29 00 00 00 00
 71.122150 1  7E8             Rx   d 8 03 41 11 1C 00 00 00 00
 71.282150 1  7E8             Rx   d 8 04 41 0C 10 6A 00 00 00
 71.312150 1  7E8             Rx   d 8 04 41 10 01 12 00 00 00
 71.342150 1  7E8             Rx   d 8 03 41 11 1C 00 00 00 00
 71.482150 1  7E8             Rx   d 8 04 41 0C 0F 98 00 00 00
 71.512150 1  7E8             Rx   d 8 04 41 10 01 05 00 00 00
 71.542150 1  7E8             Rx   d 8 03 41 11 1C 00 00 00 00
 71.682200 1  7E8             Rx   d 8 03 41 0D 25 00 00 00 00
 71.722150 1  7E8             Rx   d 8 04 41 10 00 FC 00 00 00
 71.882150 1  7E8             Rx   d 8 03 41 0D 24 00 00 00 00
 71.922200 1  7E8             Rx   d 8 04 41 10 00 F9 00 00 00
 72.002150 1  7E8             Rx   d 8 03 41 05 63 00 00 00 00
 72.062150 1  7E8             Rx   d 8 04 41 0C 0E 16 00 00 00
 72.102150 1  7E8             Rx   d 8 03 41 0D 22 00 00 00 00
 72.122150 1  7E8             Rx   d 8 03 41 11 1C 00 00 00 00
 72.282200 1  7E8             Rx   d 8 03 41 0D 21 00 00 00 00
 72.322200 1  7E8             Rx   d 8 04 41 10 00 F4 00 00 00
 72.482200 1  7E8             Rx   d 8 03 41 0D 1F 00 00 00 00
 72.522200 1  7E8             Rx   d 8 04 41 10 00 EC 00 00 00
 72.682200 1  7E8             Rx   d 8 03 41 0D 1E 00 00 00 00
 72.722200 1  7E8             Rx   d 8 04 41 10 00 F4 00 00 00
 72.882200 1  7E8             Rx   d 8 03 41 0D 1C 00 00 00 00
 72.922200 1  7E8             Rx   d 8 04 41 10 01 0D 00 00 00
 73.002200 1  7E8             Rx   d 8 03 41 05 63 00 00 00 00
 73.062200 1  7E8             Rx   d 8 04 41 0C 0F DC 00 00 00
 73.102200 1  7E8             Rx   d 8 03 41 0D 1A 00 00 00 00
 73.122200 1  7E8             Rx   d 8 03 41 11 1D 00 00 00 00
 73.282250 1  7E8             Rx   d 8 03 41 0D 19 00 00 00 00
 73.322250 1  7E8             Rx   d 8 04 41 10 01 05 00 00 00
 73.482250 1  7E8             Rx   d 8 03 41 0D 17 00 00 00 00
 73.522250 1  7E8             Rx   d 8 04 41 10 00 F9 00 00 00
 73.682250 1  7E8             Rx   d 8 03 41 0D 15 00 00 00 00
 73.722200 1  7E8             Rx   d 8 04 41 10 01 60 00 00 00
 73.882250 1  7E8             Rx   d 8 03 41 0D 13 00 00 00 00
 73.922250 1  7E8             Rx   d 8 04 41 10 01 1B 00 00 00
 74.002200 1  7E8             Rx   d 8 03 41 05 64 00 00 00 00
 74.062200 1  7E8             Rx   d 8 04 41 0C 0C E8 00 00 00
 74.102250 1  7E8             Rx   d 8 03 41 0D 11 00 00 00 00
 74.122250 1  7E8             Rx   d 8 03 41 11 1D 00 00 00 00
 74.282300 1  7E8             Rx   d 8 03 41 0D 0F 00 00 00 00
 74.322250 1  7E8             Rx   d 8 04 41 10 01 3C 00 00 00
 74.482250 1  7E8             Rx   d 8 03 41 0D 0D 00 00 00 00
 74.522250 1  7E8             Rx   d 8 04 41 10 01 26 00 00 00
 74.682300 1  7E8             Rx   d 8 03 41 0D 0C 00 00 00 00
 74.722250 1  7E8             Rx   d 8 04 41 10 01 23 00 00 00
 74.882250 1  7E8             Rx   d 8 03 41 0D 0B 00 00 00 00
 74.922250 1  7E8             Rx   d 8 04 41 10 01 1E 00 00 00
 75.002300 1  7E8             Rx   d 8 03 41 05 64 00 00 00 00
 75.062300 1  7E8             Rx   d 8 04 41 0C 0C 7C 00 00 00
 75.102250 1  7E8             Rx   d 8 03 41 0D 0B 00 00 00 00
 75.122300 1  7E8             Rx   d 8 03 41 11 1D 00 00 00 00
 75.282300 1  7E8             Rx   d 8 03 41 0D 0B 00 00 00 00
 75.322300 1  7E8             Rx   d 8 04 41 10 01 18 00 00 00
 75.482300 1  7E8             Rx   d 8 03 41 0D 0B 00 00 00 00
 75.522300 1  7E8             Rx   d 8 04 41 10 01 12 00 00 00
 75.682300 1  7E8             Rx   d 8 03 41 0D 08 00 00 00 00
 75.722300 1  7E8             Rx   d 8 04 41 10 01 1E 00 00 00
 75.882300 1  7E8             Rx   d 8 03 41 0D 04 00 00 00 00
 75.922300 1  7E8             Rx   d 8 04 41 10 01 2B 00 00 00
 76.002300 1  7E8             Rx   d 8 03 41 05 64 00 00 00 00
 76.062300 1  7E8             Rx   d 8 04 41 0C 0C 4A 00 00 00
 76.102300 1  7E8             Rx   d 8 03 41 0D 01 00 00 00 00
 76.122300 1  7E8             Rx   d 8 03 41 11 1D 00 00 00 00
 76.282350 1  7E8             Rx   d 8 03 41 0D 00 00 00 00 00
 76.322300 1  7E8             Rx   d 8 04 41 10 01 69 00 00 00
 76.482350 1  7E8             Rx   d 8 03 41 0D 00 00 00 00 00
 76.522350 1  7E8             Rx   d 8 04 41 10 01 DA 00 00 00
 76.682350 1  7E8             Rx   d 8 03 41 0D 00 00 00 00 00
 76.722350 1  7E8             Rx   d 8 04 41 10 01 C1 00 00 00
 76.882300 1  7E8             Rx   d 8 03 41 0D 00 00 00 00 00
 76.922350 1  7E8             Rx   d 8 04 41 10 01 BF 00 00 00
 77.002350 1  7E8             Rx   d 8 03 41 05 64 00 00 00 00
 77.062350 1  7E8             Rx   d 8 04 41 0C 0C 88 00 00 00
 77.102300 1  7E8             Rx   d 8 03 41 0D 00 00 00 00 00
 77.122350 1  7E8             Rx   d 8 03 41 11 1F 00 00 00 00
 77.282350 1  7E8             Rx   d 8 03 41 0D 00 00 00 00 00
 77.322350 1  7E8             Rx   d 8 04 41 10 01 BF 00 00 00
 77.482350 1  7E8             Rx   d 8 03 41 0D 00 00 00 00 00
 77.522350 1  7E8             Rx   d 8 04 41 10 01 B9 00 00 00
 77.682350 1  7E8             Rx   d 8 03 41 0D 00 00 00 00 00
 77.722350 1  7E8             Rx   d 8 04 41 10 01 B1 00 00 00
 77.882400 1  7E8             Rx   d 8 03 41 0D 00 00 00 00 00
 77.922350 1  7E8             Rx   d 8 04 41 10 01 AE 00 00 00
 78.002400 1  7E8             Rx   d 8 03 41 05 64 00 00 00 00
 78.062350 1  7E8             Rx   d 8 04 41 0C 0C 40 00 00 00
 78.102400 1  7E8             Rx   d 8 03 41 0D 00 00 00 00 00
 78.122350 1  7E8             Rx   d 8 03 41 11 1F 00 00 00 00
 78.282400 1  7E8             Rx   d 8 03 41 0D 00 00 00 00 00
 78.322400 1  7E8             Rx   d 8 04 41 10 01 AB 00 00 00
 78.482400 1  7E8             Rx   d 8 03 41 0D 00 00 00 00 00
 78.522400 1  7E8             Rx   d 8 04 41 10 01 AE 00 00 00
 78.682400 1  7E8             Rx   d 8 03 41 0D 00 00 00 00 00
 78.722400 1  7E8             Rx   d 8 04 41 10 01 AB 00 00 00
 78.882400 1  7E8             Rx   d 8 03 41 0D 00 00 00 00 00
 78.922400 1  7E8             Rx   d 8 04 41 10 01 95 00 00 00
 79.002400 1  7E8             Rx   d 8 03 41 05 64 00 00 00 00
 79.062400 1  7E8             Rx   d 8 04 41 0C 0C 16 00 00 00
 79.102400 1  7E8             Rx   d 8 03 41 0D 00 00 00 00 00
 79.122400 1  7E8             Rx   d 8 03 41 11 1E 00 00 00 00
 79.282450 1  7E8             Rx   d 8 03 41 0D 00 00 00 00 00
 79.322450 1  7E8             Rx   d 8 04 41 10 01 E8 00 00 00
 79.482450 1  7E8             Rx   d 8 03 41 0D 00 00 00 00 00
 79.522450 1  7E8             Rx   d 8 04 41 10 01 F1 00 00 00
 79.682450 1  7E8             Rx   d 8 03 41 0D 00 00 00 00 00
 79.722450 1  7E8             Rx   d 8 04 41 10 02 76 00 00 00
 79.882450 1  7E8             Rx   d 8 03 41 0D 00 00 00 00 00
 79.922400 1  7E8             Rx   d 8 04 41 10 02 6B 00 00 00
 80.002450 1  7E8             Rx   d 8 03 41 05 64 00 00 00 00
 80.062450 1  7E8             Rx   d 8 04 41 0C 0D C4 00 00 00
 80.102450 1  7E8             Rx   d 8 03 41 0D 00 00 00 00 00
 80.122450 1  7E8             Rx   d 8 03 41 11 21 00 00 00 00
 80.282450 1  7E8             Rx   d 8 03 41 0D 00 00 00 00 00
 80.322450 1  7E8             Rx   d 8 04 41 10 02 52 00 00 00
 80.482500 1  7E8             Rx   d 8 03 41 0D 01 00 00 00 00
 80.522450 1  7E8             Rx   d 8 04 41 10 02 6B 00 00 00
 80.682450 1  7E8             Rx   d 8 03 41 0D 01 00 00 00 00
 80.722450 1  7E8             Rx   d 8 04 41 10 02 6E 00 00 00
 80.882450 1  7E8             Rx   d 8 03 41 0D 01 00 00 00 00
 80.922500 1  7E8             Rx   d 8 04 41 10 02 6E 00 00 00
 81.002450 1  7E8             Rx   d 8 03 41 05 65 00 00 00 00
 81.062450 1  7E8             Rx   d 8 04 41 0C 0D 54 00 00 00
 81.102450 1  7E8             Rx   d 8 03 41 0D 02 00 00 00 00
 81.122450 1  7E8             Rx   d 8 03 41 11 22 00 00 00 00
 81.282500 1  7E8             Rx   d 8 03 41 0D 02 00 00 00 00
 81.322500 1  7E8             Rx   d 8 04 41 10 01 B1 00 00 00
 81.482500 1  7E8             Rx   d 8 03 41 0D 02 00 00 00 00
 81.522500 1  7E8             Rx   d 8 04 41 10 02 BB 00 00 00
 81.682500 1  7E8             Rx   d 8 03 41 0D 03 00 00 00 00
 81.722500 1  7E8             Rx   d 8 04 41 10 03 36 00 00 00
 81.882500 1  7E8             Rx   d 8 03 41 0D 03 00 00 00 00
 81.922500 1  7E8             Rx   d 8 04 41 10 04 6D 00 00 00
 82.002500 1  7E8             Rx   d 8 03 41 05 65 00 00 00 00
 82.062500 1  7E8             Rx   d 8 04 41 0C 12 58 00 00 00
 82.102500 1  7E8             Rx   d 8 03 41 0D 05 00 00 00 00
 82.122500 1  7E8             Rx   d 8 03 41 11 29 00 00 00 00
 82.282550 1  7E8             Rx   d 8 03 41 0D 06 00 00 00 00
 82.322550 1  7E8             Rx   d 8 04 41 10 05 48 00 00 00
 82.482550 1  7E8             Rx   d 8 03 41 0D 07 00 00 00 00
 82.522500 1  7E8             Rx   d 8 04 41 10 05 61 00 00 00
 82.682500 1  7E8             Rx   d 8 03 41 0D 08 00 00 00 00
 82.722550 1  7E8             Rx   d 8 04 41 10 05 56 00 00 00
 82.882550 1  7E8             Rx   d 8 03 41 0D 0A 00 00 00 00
 82.922550 1  7E8             Rx   d 8 04 41 10 05 40 00 00 00
 83.002550 1  7E8             Rx   d 8 03 41 05 65 00 00 00 00
 83.062550 1  7E8             Rx   d 8 04 41 0C 16 22 00 00 00
 83.102550 1  7E8             Rx   d 8 03 41 0D 0B 00 00 00 00
 83.122500 1  7E8             Rx   d 8 03 41 11 2B 00 00 00 00
 83.282550 1  7E8             Rx   d 8 03 41 0D 0C 00 00 00 00
 83.322550 1  7E8             Rx   d 8 04 41 10 05 2C 00 00 00
 83.482550 1  7E8             Rx   d 8 03 41 0D 0D 00 00 00 00
 83.522550 1  7E8             Rx   d 8 04 41 10 05 5C 00 00 00
 83.682550 1  7E8             Rx   d 8 03 41 0D 0D 00 00 00 00
 83.722550 1  7E8             Rx   d 8 04 41 10 06 29 00 00 00
 83.882550 1  7E8             Rx   d 8 03 41 0D 0E 00 00 00 00
 83.922550 1  7E8             Rx   d 8 04 41 10 05 AF 00 00 00
 84.002550 1  7E8             Rx   d 8 03 41 05 65 00 00 00 00
 84.062550 1  7E8             Rx   d 8 04 41 0C 1A C6 00 00 00
 84.102550 1  7E8             Rx   d 8 03 41 0D 0F 00 00 00 00
 84.122550 1  7E8             Rx   d 8 03 41 11 30 00 00 00 00
 84.282600 1  7E8             Rx   d 8 03 41 0D 10 00 00 00 00
 84.322600 1  7E8             Rx   d 8 04 41 10 05 DE 00 00 00
 84.482600 1  7E8             Rx   d 8 03 41 0D 10 00 00 00 00
 84.522600 1  7E8             Rx   d 8 04 41 10 05 E9 00 00 00
 84.682600 1  7E8             Rx   d 8 03 41 0D 11 00 00 00 00
 84.722600 1  7E8             Rx   d 8 04 41 10 05 DE 00 00 00
 84.882600 1  7E8             Rx   d 8 03 41 0D 12 00 00 00 00
 84.922600 1  7E8             Rx   d 8 04 41 10 05 AF 00 00 00
 85.002600 1  7E8             Rx   d 8 03 41 05 65 00 00 00 00
 85.062600 1  7E8             Rx   d 8 04 41 0C 17 2E 00 00 00
 85.102600 1  7E8             Rx   d 8 03 41 0D 13 00 00 00 00
 85.122600 1  7E8             Rx   d 8 03 41 11 36 00 00 00 00
 85.282600 1  7E8             Rx   d 8 03 41 0D 13 00 00 00 00
 85.322650 1  7E8             Rx   d 8 04 41 10 06 45 00 00 00
 85.482650 1  7E8             Rx   d 8 03 41 0D 14 00 00 00 00
 85.522650 1  7E8             Rx   d 8 04 41 10 06 4D 00 00 00
 85.682600 1  7E8             Rx   d 8 03 41 0D 15 00 00 00 00
 85.722600 1  7E8             Rx   d 8 04 41 10 06 10 00 00 00
 85.882600 1  7E8             Rx   d 8 03 41 0D 15 00 00 00 00
 85.922650 1  7E8             Rx   d 8 04 41 10 06 3D 00 00 00
 86.002600 1  7E8             Rx   d 8 03 41 05 65 00 00 00 00
 86.062600 1  7E8             Rx   d 8 04 41 0C 1B 58 00 00 00
 86.102650 1  7E8             Rx   d 8 03 41 0D 16 00 00 00 00
 86.122600 1  7E8             Rx   d 8 03 41 11 35 00 00 00 00
 86.282650 1  7E8             Rx   d 8 03 41 0D 17 00 00 00 00
 86.322650 1  7E8             Rx   d 8 04 41 10 07 4D 00 00 00
 86.482650 1  7E8             Rx   d 8 03 41 0D 17 00 00 00 00
 86.522650 1  7E8             Rx   d 8 04 41 10 07 6E 00 00 00
 86.682650 1  7E8             Rx   d 8 03 41 0D 18 00 00 00 00
 86.722650 1  7E8             Rx   d 8 04 41 10 07 18 00 00 00
 86.882650 1  7E8             Rx   d 8 03 41 0D 19 00 00 00 00
 86.922650 1  7E8             Rx   d 8 04 41 10 07 84 00 00 00
 87.002650 1  7E8             Rx   d 8 03 41 05 66 00 00 00 00
 87.062700 1  7E8             Rx   d 8 04 41 0C 15 FC 00 00 00
 87.102650 1  7E8             Rx   d 8 03 41 0D 1A 00 00 00 00
 87.122700 1  7E8             Rx   d 8 03 41 11 5C 00 00 00 00
 87.282700 1  7E8             Rx   d 8 03 41 0D 1A 00 00 00 00
 87.322700 1  7E8             Rx   d 8 04 41 10 08 2E 00 00 00
 87.482700 1  7E8             Rx   d 8 03 41 0D 1B 00 00 00 00
 87.522700 1  7E8             Rx   d 8 04 41 10 08 41 00 00 00
 87.682700 1  7E8             Rx   d 8 03 41 0D 1D 00 00 00 00
 87.722700 1  7E8             Rx   d 8 04 41 10 08 73 00 00 00
 87.882700 1  7E8             Rx   d 8 03 41 0D 1D 00 00 00 00
 87.922700 1  7E8             Rx   d 8 04 41 10 08 8C 00 00 00
 88.002700 1  7E8             Rx   d 8 03 41 05 66 00 00 00 00
 88.062700 1  7E8             Rx   d 8 04 41 0C 18 6A 00 00 00
 88.102700 1  7E8             Rx   d 8 03 41 0D 1D 00 00 00 00
 88.122700 1  7E8             Rx   d 8 03 41 11 62 00 00 00 00
 88.282750 1  7E8             Rx   d 8 03 41 0D 1E 00 00 00 00
 88.322700 1  7E8             Rx   d 8 04 41 10 07 F9 00 00 00
 88.482700 1  7E8             Rx   d 8 03 41 0D 1F 00 00 00 00
 88.522750 1  7E8             Rx   d 8 04 41 10 07 3F 00 00 00
 88.682750 1  7E8             Rx   d 8 03 41 0D 1F 00 00 00 00
 88.722750 1  7E8             Rx   d 8 04 41 10 07 C4 00 00 00
 88.882700 1  7E8             Rx   d 8 03 41 0D 20 00 00 00 00
 88.922700 1  7E8             Rx   d 8 04 41 10 09 22 00 00 00
 89.002750 1  7E8             Rx   d 8 03 41 05 66 00 00 00 00
 89.062850 1  7E8             Rx   d 8 04 41 0C 13 44 00 00 00
 89.102700 1  7E8             Rx   d 8 03 41 0D 21 00 00 00 00
 89.122750 1  7E8             Rx   d 8 03 41 11 BB 00 00 00 00
 89.282750 1  7E8             Rx   d 8 03 41 0D 21 00 00 00 00
 89.322750 1  7E8             Rx   d 8 04 41 10 09 7B 00 00 00
 89.482750 1  7E8             Rx   d 8 03 41 0D 22 00 00 00 00
 89.522750 1  7E8             Rx   d 8 04 41 10 09 A2 00 00 00
 89.682750 1  7E8             Rx   d 8 03 41 0D 23 00 00 00 00
 89.722750 1  7E8             Rx   d 8 04 41 10 09 D1 00 00 00
 89.882750 1  7E8             Rx   d 8 03 41 0D 24 00 00 00 00
 89.922750 1  7E8             Rx   d 8 04 41 10 0A 01 00 00 00
 90.002750 1  7E8             Rx   d 8 03 41 05 66 00 00 00 00
 90.062900 1  7E8             Rx   d 8 04 41 0C 15 FA 00 00 00
 90.102800 1  7E8             Rx   d 8 03 41 0D 25 00 00 00 00
 90.122750 1  7E8             Rx   d 8 03 41 11 67 00 00 00 00
 90.282800 1  7E8             Rx   d 8 03 41 0D 26 00 00 00 00
 90.322800 1  7E8             Rx   d 8 04 41 10 0A 17 00 00 00
 90.482800 1  7E8             Rx   d 8 03 41 0D 27 00 00 00 00
 90.522800 1  7E8             Rx   d 8 04 41 10 0A 14 00 00 00
 90.682800 1  7E8             Rx   d 8 03 41 0D 28 00 00 00 00
 90.722800 1  7E8             Rx   d 8 04 41 10 09 84 00 00 00
 90.882800 1  7E8             Rx   d 8 03 41 0D 28 00 00 00 00
 90.922800 1  7E8             Rx   d 8 04 41 10 09 5D 00 00 00
 91.002800 1  7E8             Rx   d 8 03 41 05 66 00 00 00 00
 91.062800 1  7E8             Rx   d 8 04 41 0C 17 C8 00 00 00
 91.102800 1  7E8             Rx   d 8 03 41 0D 29 00 00 00 00
 91.122800 1  7E8             Rx   d 8 03 41 11 2A 00 00 00 00
 91.282850 1  7E8             Rx   d 8 03 41 0D 2A 00 00 00 00
 91.322850 1  7E8             Rx   d 8 04 41 10 04 B8 00 00 00
 91.482800 1  7E8             Rx   d 8 03 41 0D 2A 00 00 00 00
 91.522800 1  7E8             Rx   d 8 04 41 10 04 5F 00 00 00
 91.682850 1  7E8             Rx   d 8 03 41 0D 2A 00 00 00 00
 91.722850 1  7E8             Rx   d 8 04 41 10 04 80 00 00 00
 91.882850 1  7E8             Rx   d 8 03 41 0D 2A 00 00 00 00
 91.922800 1  7E8             Rx   d 8 04 41 10 00 A9 00 00 00
 92.002850 1  7E8             Rx   d 8 03 41 05 67 00 00 00 00
 92.062850 1  7E8             Rx   d 8 04 41 0C 18 6E 00 00 00
 92.102850 1  7E8             Rx   d 8 03 41 0D 2A 00 00 00 00
 92.122850 1  7E8             Rx   d 8 03 41 11 1E 00 00 00 00
 92.282850 1  7E8             Rx   d 8 03 41 0D 2A 00 00 00 00
 92.322850 1  7E8             Rx   d 8 04 41 10 01 79 00 00 00
 92.482850 1  7E8             Rx   d 8 03 41 0D 2A 00 00 00 00
 92.522850 1  7E8             Rx   d 8 04 41 10 01 87 00 00 00
 92.682850 1  7E8             Rx   d 8 03 41 0D 2A 00 00 00 00
 92.722850 1  7E8             Rx   d 8 04 41 10 01 79 00 00 00
 92.882850 1  7E8             Rx   d 8 03 41 0D 29 00 00 00 00
 92.922900 1  7E8             Rx   d 8 04 41 10 01 52 00 00 00
 93.002850 1  7E8             Rx   d 8 03 41 05 67 00 00 00 00
 93.063050 1  7E8             Rx   d 8 04 41 0C 10 F8 00 00 00
 93.102850 1  7E8             Rx   d 8 03 41 0D 29 00 00 00 00
 93.122850 1  7E8             Rx   d 8 03 41 11 1D 00 00 00 00
 93.282900 1  7E8             Rx   d 8 03 41 0D 29 00 00 00 00
 93.322900 1  7E8             Rx   d 8 04 41 10 01 10 00 00 00
 93.482900 1  7E8             Rx   d 8 03 41 0D 28 00 00 00 00
 93.522900 1  7E8             Rx   d 8 04 41 10 01 0A 00 00 00
 93.682900 1  7E8             Rx   d 8 03 41 0D 28 00 00 00 00
 93.722900 1  7E8             Rx   d 8 04 41 10 01 0A 00 00 00
 93.882900 1  7E8             Rx   d 8 03 41 0D 27 00 00 00 00
 93.922900 1  7E8             Rx   d 8 04 41 10 01 10 00 00 00
 94.002900 1  7E8             Rx   d 8 03 41 05 67 00 00 00 00
 94.062900 1  7E8             Rx   d 8 04 41 0C 0F E2 00 00 00
 94.102900 1  7E8             Rx   d 8 03 41 0D 27 00 00 00 00
 94.122900 1  7E8             Rx   d 8 03 41 11 1C 00 00 00 00
 94.282900 1  7E8             Rx   d 8 03 41 0D 26 00 00 00 00
 94.322950 1  7E8             Rx   d 8 04 41 10 01 12 00 00 00
 94.482950 1  7E8             Rx   d 8 03 41 0D 25 00 00 00 00
 94.522900 1  7E8             Rx   d 8 04 41 10 01 07 00 00 00
 94.682900 1  7E8             Rx   d 8 03 41 0D 24 00 00 00 00
 94.722950 1  7E8             Rx   d 8 04 41 10 00 F9 00 00 00
 94.882950 1  7E8             Rx   d 8 03 41 0D 22 00 00 00 00
 94.922950 1  7E8             Rx   d 8 04 41 10 00 F4 00 00 00
 95.002900 1  7E8             Rx   d 8 03 41 05 67 00 00 00 00
 95.062900 1  7E8             Rx   d 8 04 41 0C 0F B4 00 00 00
 95.102950 1  7E8             Rx   d 8 03 41 0D 22 00 00 00 00
 95.122900 1  7E8             Rx   d 8 03 41 11 1C 00 00 00 00
 95.282950 1  7E8             Rx   d 8 03 41 0D 21 00 00 00 00
 95.322950 1  7E8             Rx   d 8 04 41 10 01 2E 00 00 00
 95.482950 1  7E8             Rx   d 8 03 41 0D 21 00 00 00 00
 95.522950 1  7E8             Rx   d 8 04 41 10 01 31 00 00 00
 95.682950 1  7E8             Rx   d 8 03 41 0D 20 00 00 00 00
 95.722950 1  7E8             Rx   d 8 04 41 10 01 50 00 00 00
 95.882950 1  7E8             Rx   d 8 03 41 0D 20 00 00 00 00
 95.922950 1  7E8             Rx   d 8 04 41 10 01 50 00 00 00
 96.002950 1  7E8             Rx   d 8 03 41 05 68 00 00 00 00
 96.063150 1  7E8             Rx   d 8 04 41 0C 12 AA 00 00 00
 96.102950 1  7E8             Rx   d 8 03 41 0D 21 00 00 00 00
 96.122950 1  7E8             Rx   d 8 03 41 11 21 00 00 00 00
 96.283000 1  7E8             Rx   d 8 03 41 0D 21 00 00 00 00
 96.323000 1  7E8             Rx   d 8 04 41 10 03 4F 00 00 00
 96.483000 1  7E8             Rx   d 8 03 41 0D 20 00 00 00 00
 96.523000 1  7E8             Rx   d 8 04 41 10 03 F8 00 00 00
 96.683000 1  7E8             Rx   d 8 03 41 0D 20 00 00 00 00
 96.723000 1  7E8             Rx   d 8 04 41 10 06 45 00 00 00
 96.883000 1  7E8             Rx   d 8 03 41 0D 21 00 00 00 00
 96.923000 1  7E8             Rx   d 8 04 41 10 07 02 00 00 00
 97.003000 1  7E8             Rx   d 8 03 41 05 68 00 00 00 00
 97.063000 1  7E8             Rx   d 8 04 41 0C 13 BA 00 00 00
 97.103000 1  7E8             Rx   d 8 03 41 0D 22 00 00 00 00
 97.123000 1  7E8             Rx   d 8 03 41 11 5D 00 00 00 00
 97.283000 1  7E8             Rx   d 8 03 41 0D 22 00 00 00 00
 97.323000 1  7E8             Rx   d 8 04 41 10 07 8A 00 00 00
 97.483050 1  7E8             Rx   d 8 03 41 0D 23 00 00 00 00
 97.523050 1  7E8             Rx   d 8 04 41 10 07 9B 00 00 00
 97.683050 1  7E8             Rx   d 8 03 41 0D 23 00 00 00 00
 97.723000 1  7E8             Rx   d 8 04 41 10 07 9D 00 00 00
 97.883000 1  7E8             Rx   d 8 03 41 0D 24 00 00 00 00
 97.923050 1  7E8             Rx   d 8 04 41 10 07 C7 00 00 00
 98.003000 1  7E8             Rx   d 8 03 41 05 68 00 00 00 00
 98.063050 1  7E8             Rx   d 8 04 41 0C 15 AA 00 00 00
 98.103050 1  7E8             Rx   d 8 03 41 0D 25 00 00 00 00
 98.123050 1  7E8             Rx   d 8 03 41 11 5B 00 00 00 00
 98.283050 1  7E8             Rx   d 8 03 41 0D 25 00 00 00 00
 98.323050 1  7E8             Rx   d 8 04 41 10 07 DB 00 00 00
 98.483050 1  7E8             Rx   d 8 03 41 0D 26 00 00 00 00
 98.523050 1  7E8             Rx   d 8 04 41 10 07 EE 00 00 00
 98.683050 1  7E8             Rx   d 8 03 41 0D 27 00 00 00 00
 98.723100 1  7E8             Rx   d 8 04 41 10 08 1A 00 00 00
 98.883050 1  7E8             Rx   d 8 03 41 0D 27 00 00 00 00
 98.923050 1  7E8             Rx   d 8 04 41 10 08 1D 00 00 00
 99.003100 1  7E8             Rx   d 8 03 41 05 69 00 00 00 00
 99.063150 1  7E8             Rx   d 8 04 41 0C 17 9C 00 00 00
 99.103050 1  7E8             Rx   d 8 03 41 0D 28 00 00 00 00
 99.123050 1  7E8             Rx   d 8 03 41 11 57 00 00 00 00
 99.283100 1  7E8             Rx   d 8 03 41 0D 29 00 00 00 00
 99.323100 1  7E8             Rx   d 8 04 41 10 08 20 00 00 00
 99.483100 1  7E8             Rx   d 8 03 41 0D 29 00 00 00 00
 99.523100 1  7E8             Rx   d 8 04 41 10 08 36 00 00 00
 99.683100 1  7E8             Rx   d 8 03 41 0D 2A 00 00 00 00
 99.723100 1  7E8             Rx   d 8 04 41 10 08 44 00 00 00
 99.883100 1  7E8             Rx   d 8 03 41 0D 2A 00 00 00 00
 99.923100 1  7E8             Rx   d 8 04 41 10 08 52 00 00 00
 100.003100 1  7E8             Rx   d 8 03 41 05 69 00 00 00 00
 100.063200 1  7E8             Rx   d 8 04 41 0C 19 0E 00 00 00
 100.103100 1  7E8             Rx   d 8 03 41 0D 2B 00 00 00 00
 100.123100 1  7E8             Rx   d 8 03 41 11 4A 00 00 00 00
 100.283150 1  7E8             Rx   d 8 03 41 0D 2B 00 00 00 00
 100.323100 1  7E8             Rx   d 8 04 41 10 08 15 00 00 00
 100.483100 1  7E8             Rx   d 8 03 41 0D 2B 00 00 00 00
 100.523150 1  7E8             Rx   d 8 04 41 10 07 90 00 00 00
 100.683150 1  7E8             Rx   d 8 03 41 0D 2C 00 00 00 00
 100.723150 1  7E8             Rx   d 8 04 41 10 07 10 00 00 00
 100.883150 1  7E8             Rx   d 8 03 41 0D 2C 00 00 00 00
 100.923100 1  7E8             Rx   d 8 04 41 10 07 15 00 00 00
 101.003150 1  7E8             Rx   d 8 03 41 05 69 00 00 00 00
 101.063250 1  7E8             Rx   d 8 04 41 0C 12 3C 00 00 00
 101.103150 1  7E8             Rx   d 8 03 41 0D 2C 00 00 00 00
 101.123150 1  7E8             Rx   d 8 03 41 11 36 00 00 00 00
 101.283150 1  7E8             Rx   d 8 03 41 0D 2D 00 00 00 00
 101.323200 1  7E8             Rx   d 8 04 41 10 02 3E 00 00 00
 101.483150 1  7E8             Rx   d 8 03 41 0D 2D 00 00 00 00
 101.523150 1  7E8             Rx   d 8 04 41 10 00 EC 00 00 00
 101.693150 1  7E8             Rx   d 8 03 41 0D 2C 00 00 00 00
 101.723150 1  7E8             Rx   d 8 04 41 10 01 60 00 00 00
 101.883150 1  7E8             Rx   d 8 03 41 0D 2C 00 00 00 00
 101.923200 1  7E8             Rx   d 8 04 41 10 00 FC 00 00 00
 102.013200 1  7E8             Rx   d 8 03 41 05 69 00 00 00 00
 102.063300 1  7E8             Rx   d 8 04 41 0C 11 D6 00 00 00
 102.103150 1  7E8             Rx   d 8 03 41 0D 2C 00 00 00 00
 102.123150 1  7E8             Rx   d 8 03 41 11 1D 00 00 00 00
 102.283200 1  7E8             Rx   d 8 03 41 0D 2C 00 00 00 00
 102.323200 1  7E8             Rx   d 8 04 41 10 01 26 00 00 00
 102.483200 1  7E8             Rx   d 8 03 41 0D 2B 00 00 00 00
 102.523200 1  7E8             Rx   d 8 04 41 10 01 23 00 00 00
 102.683200 1  7E8             Rx   d 8 03 41 0D 2B 00 00 00 00
 102.723200 1  7E8             Rx   d 8 04 41 10 01 23 00 00 00
 102.893200 1  7E8             Rx   d 8 03 41 0D 2A 00 00 00 00
 102.923200 1  7E8             Rx   d 8 04 41 10 01 12 00 00 00
 103.003200 1  7E8             Rx   d 8 03 41 05 69 00 00 00 00
 103.063200 1  7E8             Rx   d 8 04 41 0C 10 D2 00 00 00
 103.103200 1  7E8             Rx   d 8 03 41 0D 29 00 00 00 00
 103.123200 1  7E8             Rx   d 8 03 41 11 1C 00 00 00 00
 103.283250 1  7E8             Rx   d 8 03 41 0D 27 00 00 00 00
 103.323250 1  7E8             Rx   d 8 04 41 10 01 10 00 00 00
 103.483250 1  7E8             Rx   d 8 03 41 0D 26 00 00 00 00
 103.523200 1  7E8             Rx   d 8 04 41 10 00 FF 00 00 00
 103.683200 1  7E8             Rx   d 8 03 41 0D 25 00 00 00 00
 103.723250 1  7E8             Rx   d 8 04 41 10 00 FC 00 00 00
 103.883250 1  7E8             Rx   d 8 03 41 0D 23 00 00 00 00
 103.923250 1  7E8             Rx   d 8 04 41 10 00 F4 00 00 00
 104.003250 1  7E8             Rx   d 8 03 41 05 69 00 00 00 00
 104.063250 1  7E8             Rx   d 8 04 41 0C 0E 12 00 00 00
 104.103250 1  7E8             Rx   d 8 03 41 0D 22 00 00 00 00
 104.123200 1  7E8             Rx   d 8 03 41 11 1C 00 00 00 00
 104.283250 1  7E8             Rx   d 8 03 41 0D 21 00 00 00 00
 104.323250 1  7E8             Rx   d 8 04 41 10 00 E9 00 00 00
 104.483250 1  7E8             Rx   d 8 03 41 0D 20 00 00 00 00
 104.523300 1  7E8             Rx   d 8 04 41 10 00 E0 00 00 00
 104.683250 1  7E8             Rx   d 8 03 41 0D 1F 00 00 00 00
 104.723250 1  7E8             Rx   d 8 04 41 10 00 FF 00 00 00
 104.883250 1  7E8             Rx   d 8 03 41 0D 1E 00 00 00 00
 104.923250 1  7E8             Rx   d 8 04 41 10 01 31 00 00 00
 105.003250 1  7E8             Rx   d 8 03 41 05 69 00 00 00 00
 105.063450 1  7E8             Rx   d 8 04 41 0C 12 1E 00 00 00
 105.103250 1  7E8             Rx   d 8 03 41 0D 1F 00 00 00 00
 105.128250 1  7E8             Rx   d 8 03 41 11 1D 00 00 00 00
 105.288300 1  7E8             Rx   d 8 03 41 0D 1F 00 00 00 00
 105.318300 1  7E8             Rx   d 8 04 41 10 01 CA 00 00 00
 105.488300 1  7E8             Rx   d 8 03 41 0D 1E 00 00 00 00
 105.518250 1  7E8             Rx   d 8 04 41 10 03 06 00 00 00
 105.688300 1  7E8             Rx   d 8 03 41 0D 1E 00 00 00 00
 105.718300 1  7E8             Rx   d 8 04 41 10 02 FE 00 00 00
 105.893300 1  7E8             Rx   d 8 03 41 0D 1E 00 00 00 00
 105.923300 1  7E8             Rx   d 8 04 41 10 06 26 00 00 00
 106.013300 1  7E8             Rx   d 8 03 41 05 6A 00 00 00 00
 106.063500 1  7E8             Rx   d 8 04 41 0C 17 4C 00 00 00
 106.103300 1  7E8             Rx   d 8 03 41 0D 1E 00 00 00 00
 106.123300 1  7E8             Rx   d 8 03 41 11 46 00 00 00 00
 106.288350 1  7E8             Rx   d 8 03 41 0D 1F 00 00 00 00
 106.318300 1  7E8             Rx   d 8 04 41 10 08 81 00 00 00
 106.493350 1  7E8             Rx   d 8 03 41 0D 1F 00 00 00 00
 106.518300 1  7E8             Rx   d 8 04 41 10 08 97 00 00 00
 106.683350 1  7E8             Rx   d 8 03 41 0D 20 00 00 00 00
 106.723300 1  7E8             Rx   d 8 04 41 10 07 8A 00 00 00
 106.883350 1  7E8             Rx   d 8 03 41 0D 21 00 00 00 00
 106.923350 1  7E8             Rx   d 8 04 41 10 07 7C 00 00 00
 107.003300 1  7E8             Rx   d 8 03 41 05 6A 00 00 00 00
 107.063500 1  7E8             Rx   d 8 04 41 0C 13 BA 00 00 00
 107.103350 1  7E8             Rx   d 8 03 41 0D 21 00 00 00 00
 107.123350 1  7E8             Rx   d 8 03 41 11 BF 00 00 00 00
 107.283350 1  7E8             Rx   d 8 03 41 0D 22 00 00 00 00
 107.323350 1  7E8             Rx   d 8 04 41 10 07 82 00 00 00
 107.483350 1  7E8             Rx   d 8 03 41 0D 23 00 00 00 00
 107.523350 1  7E8             Rx   d 8 04 41 10 07 AE 00 00 00
 107.683400 1  7E8             Rx   d 8 03 41 0D 23 00 00 00 00
 107.723350 1  7E8             Rx   d 8 04 41 10 07 B1 00 00 00
 107.883350 1  7E8             Rx   d 8 03 41 0D 24 00 00 00 00
 107.923350 1  7E8             Rx   d 8 04 41 10 07 BF 00 00 00
 108.003350 1  7E8             Rx   d 8 03 41 05 6B 00 00 00 00
 108.063600 1  7E8             Rx   d 8 04 41 0C 15 A8 00 00 00
 108.103400 1  7E8             Rx   d 8 03 41 0D 25 00 00 00 00
 108.123400 1  7E8             Rx   d 8 03 41 11 95 00 00 00 00
 108.283400 1  7E8             Rx   d 8 03 41 0D 25 00 00 00 00
 108.323400 1  7E8             Rx   d 8 04 41 10 08 23 00 00 00
 108.483400 1  7E8             Rx   d 8 03 41 0D 26 00 00 00 00
 108.518400 1  7E8             Rx   d 8 04 41 10 08 47 00 00 00
 108.683400 1  7E8             Rx   d 8 03 41 0D 26 00 00 00 00
 108.718400 1  7E8             Rx   d 8 04 41 10 08 47 00 00 00
 108.893400 1  7E8             Rx   d 8 03 41 0D 27 00 00 00 00
 108.918400 1  7E8             Rx   d 8 04 41 10 08 3F 00 00 00
 109.003400 1  7E8             Rx   d 8 03 41 05 6B 00 00 00 00
 109.063600 1  7E8             Rx   d 8 04 41 0C 17 62 00 00 00
 109.098650 1  7E8             Rx   d 8 03 41 0D 28 00 00 00 00
 109.133400 1  7E8             Rx   d 8 03 41 11 6D 00 00 00 00
 109.283450 1  7E8             Rx   d 8 03 41 0D 28 00 00 00 00
 109.318400 1  7E8             Rx   d 8 04 41 10 08 65 00 00 00
 109.488450 1  7E8             Rx   d 8 03 41 0D 29 00 00 00 00
 109.518450 1  7E8             Rx   d 8 04 41 10 08 68 00 00 00
 109.688400 1  7E8             Rx   d 8 03 41 0D 29 00 00 00 00
 109.718400 1  7E8             Rx   d 8 04 41 10 08 95 00 00 00
 109.888400 1  7E8             Rx   d 8 03 41 0D 2A 00 00 00 00
 109.918400 1  7E8             Rx   d 8 04 41 10 06 AC 00 00 00
 110.013450 1  7E8             Rx   d 8 03 41 05 6B 00 00 00 00
 110.063450 1  7E8             Rx   d 8 04 41 0C 18 B8 00 00 00
 110.103450 1  7E8             Rx   d 8 03 41 0D 2A 00 00 00 00
 110.123450 1  7E8             Rx   d 8 03 41 11 28 00 00 00 00
 110.283450 1  7E8             Rx   d 8 03 41 0D 2A 00 00 00 00
 110.323450 1  7E8             Rx   d 8 04 41 10 01 5B 00 00 00
 110.483450 1  7E8             Rx   d 8 03 41 0D 2A 00 00 00 00
 110.523450 1  7E8             Rx   d 8 04 41 10 01 66 00 00 00
 110.683450 1  7E8             Rx   d 8 03 41 0D 2A 00 00 00 00
 110.723500 1  7E8             Rx   d 8 04 41 10 01 A8 00 00 00
 110.883500 1  7E8             Rx   d 8 03 41 0D 2A 00 00 00 00
 110.923450 1  7E8             Rx   d 8 04 41 10 01 9B 00 00 00
 111.003450 1  7E8             Rx   d 8 03 41 05 6B 00 00 00 00
 111.063450 1  7E8             Rx   d 8 04 41 0C 18 4C 00 00 00
 111.103500 1  7E8             Rx   d 8 03 41 0D 2A 00 00 00 00
 111.123450 1  7E8             Rx   d 8 03 41 11 1F 00 00 00 00
 111.283500 1  7E8             Rx   d 8 03 41 0D 29 00 00 00 00
 111.323500 1  7E8             Rx   d 8 04 41 10 01 9D 00 00 00
 111.483500 1  7E8             Rx   d 8 03 41 0D 28 00 00 00 00
 111.523500 1  7E8             Rx   d 8 04 41 10 01 84 00 00 00
 111.683500 1  7E8             Rx   d 8 03 41 0D 28 00 00 00 00
 111.723500 1  7E8             Rx   d 8 04 41 10 01 84 00 00 00
 111.888500 1  7E8             Rx   d 8 03 41 0D 26 00 00 00 00
 111.923500 1  7E8             Rx   d 8 04 41 10 01 87 00 00 00
 112.008500 1  7E8             Rx   d 8 03 41 05 6B 00 00 00 00
 112.063500 1  7E8             Rx   d 8 04 41 0C 16 06 00 00 00
 112.098750 1  7E8             Rx   d 8 03 41 0D 25 00 00 00 00
 112.128500 1  7E8             Rx   d 8 03 41 11 1E 00 00 00 00
 112.283550 1  7E8             Rx   d 8 03 41 0D 24 00 00 00 00
 112.318600 1  7E8             Rx   d 8 04 41 10 01 63 00 00 00
 112.488500 1  7E8             Rx   d 8 03 41 0D 23 00 00 00 00
 112.523500 1  7E8             Rx   d 8 04 41 10 01 8A 00 00 00
 112.688550 1  7E8             Rx   d 8 03 41 0D 22 00 00 00 00
 112.718550 1  7E8             Rx   d 8 04 41 10 01 50 00 00 00
 112.893550 1  7E8             Rx   d 8 03 41 0D 21 00 00 00 00
 112.918600 1  7E8             Rx   d 8 04 41 10 01 42 00 00 00
 113.008550 1  7E8             Rx   d 8 03 41 05 6B 00 00 00 00
 113.068550 1  7E8             Rx   d 8 04 41 0C 13 3E 00 00 00
 113.098800 1  7E8             Rx   d 8 03 41 0D 20 00 00 00 00
 113.128550 1  7E8             Rx   d 8 03 41 11 1D 00 00 00 00
 113.288550 1  7E8             Rx   d 8 03 41 0D 20 00 00 00 00
 113.318550 1  7E8             Rx   d 8 04 41 10 01 2B 00 00 00
 113.483600 1  7E8             Rx   d 8 03 41 0D 1F 00 00 00 00
 113.523600 1  7E8             Rx   d 8 04 41 10 01 2E 00 00 00
 113.683550 1  7E8             Rx   d 8 03 41 0D 1E 00 00 00 00
 113.723550 1  7E8             Rx   d 8 04 41 10 01 52 00 00 00
 113.883550 1  7E8             Rx   d 8 03 41 0D 1F 00 00 00 00
 113.923600 1  7E8             Rx   d 8 04 41 10 01 D2 00 00 00
 114.003550 1  7E8             Rx   d 8 03 41 05 6C 00 00 00 00
 114.063550 1  7E8             Rx   d 8 04 41 0C 15 E8 00 00 00
 114.103550 1  7E8             Rx   d 8 03 41 0D 1F 00 00 00 00
 114.123550 1  7E8             Rx   d 8 03 41 11 21 00 00 00 00
 114.283600 1  7E8             Rx   d 8 03 41 0D 1E 00 00 00 00
 114.323600 1  7E8             Rx   d 8 04 41 10 03 CE 00 00 00
 114.483600 1  7E8             Rx   d 8 03 41 0D 1E 00 00 00 00
 114.523600 1  7E8             Rx   d 8 04 41 10 05 A7 00 00 00
 114.683600 1  7E8             Rx   d 8 03 41 0D 1F 00 00 00 00
 114.723600 1  7E8             Rx   d 8 04 41 10 09 36 00 00 00
 114.883600 1  7E8             Rx   d 8 03 41 0D 1F 00 00 00 00
 114.923600 1  7E8             Rx   d 8 04 41 10 09 14 00 00 00
 115.003600 1  7E8             Rx   d 8 03 41 05 6C 00 00 00 00
 115.063600 1  7E8             Rx   d 8 04 41 0C 1A E4 00 00 00
 115.103600 1  7E8             Rx   d 8 03 41 0D 20 00 00 00 00
 115.123600 1  7E8             Rx   d 8 03 41 11 7D 00 00 00 00
 115.293650 1  7E8             Rx   d 8 03 41 0D 21 00 00 00 00
 115.318700 1  7E8             Rx   d 8 04 41 10 09 CF 00 00 00
 115.488650 1  7E8             Rx   d 8 03 41 0D 22 00 00 00 00
 115.523650 1  7E8             Rx   d 8 04 41 10 09 DC 00 00 00
 115.688600 1  7E8             Rx   d 8 03 41 0D 23 00 00 00 00
 115.718600 1  7E8             Rx   d 8 04 41 10 0A 01 00 00 00
 115.883650 1  7E8             Rx   d 8 03 41 0D 23 00 00 00 00
 115.918750 1  7E8             Rx   d 8 04 41 10 0A 62 00 00 00
 116.013650 1  7E8             Rx   d 8 03 41 05 6C 00 00 00 00
 116.068650 1  7E8             Rx   d 8 04 41 0C 1D FC 00 00 00
 116.098850 1  7E8             Rx   d 8 03 41 0D 24 00 00 00 00
 116.128650 1  7E8             Rx   d 8 03 41 11 59 00 00 00 00
 116.293650 1  7E8             Rx   d 8 03 41 0D 25 00 00 00 00
 116.318650 1  7E8             Rx   d 8 04 41 10 08 EB 00 00 00
 116.488700 1  7E8             Rx   d 8 03 41 0D 25 00 00 00 00
 116.518750 1  7E8             Rx   d 8 04 41 10 08 4F 00 00 00
 116.688650 1  7E8             Rx   d 8 03 41 0D 26 00 00 00 00
 116.718650 1  7E8             Rx   d 8 04 41 10 08 23 00 00 00
 116.883650 1  7E8             Rx   d 8 03 41 0D 26 00 00 00 00
 116.923650 1  7E8             Rx   d 8 04 41 10 08 28 00 00 00
 117.003700 1  7E8             Rx   d 8 03 41 05 6C 00 00 00 00
 117.063700 1  7E8             Rx   d 8 04 41 0C 16 EA 00 00 00
 117.103650 1  7E8             Rx   d 8 03 41 0D 27 00 00 00 00
 117.123700 1  7E8             Rx   d 8 03 41 11 6F 00 00 00 00
 117.283700 1  7E8             Rx   d 8 03 41 0D 27 00 00 00 00
 117.323700 1  7E8             Rx   d 8 04 41 10 08 4F 00 00 00
 117.483700 1  7E8             Rx   d 8 03 41 0D 28 00 00 00 00
 117.523700 1  7E8             Rx   d 8 04 41 10 08 58 00 00 00
 117.683700 1  7E8             Rx   d 8 03 41 0D 29 00 00 00 00
 117.723700 1  7E8             Rx   d 8 04 41 10 08 52 00 00 00
 117.883700 1  7E8             Rx   d 8 03 41 0D 29 00 00 00 00
 117.923700 1  7E8             Rx   d 8 04 41 10 08 5D 00 00 00
 118.003700 1  7E8             Rx   d 8 03 41 05 6C 00 00 00 00
 118.063700 1  7E8             Rx   d 8 04 41 0C 18 96 00 00 00
 118.103700 1  7E8             Rx   d 8 03 41 0D 2A 00 00 00 00
 118.123700 1  7E8             Rx   d 8 03 41 11 5E 00 00 00 00
 118.283750 1  7E8             Rx   d 8 03 41 0D 2A 00 00 00 00
 118.323750 1  7E8             Rx   d 8 04 41 10 06 EE 00 00 00
 118.483750 1  7E8             Rx   d 8 03 41 0D 2B 00 00 00 00
 118.523750 1  7E8             Rx   d 8 04 41 10 06 EC 00 00 00
 118.688700 1  7E8             Rx   d 8 03 41 0D 2B 00 00 00 00
 118.718750 1  7E8             Rx   d 8 04 41 10 06 C2 00 00 00
 118.888800 1  7E8             Rx   d 8 03 41 0D 2C 00 00 00 00
 118.918750 1  7E8             Rx   d 8 04 41 10 06 D0 00 00 00
 119.008700 1  7E8             Rx   d 8 03 41 05 6C 00 00 00 00
 119.068750 1  7E8             Rx   d 8 04 41 0C 19 82 00 00 00
 119.099000 1  7E8             Rx   d 8 03 41 0D 2C 00 00 00 00
 119.133750 1  7E8             Rx   d 8 03 41 11 3C 00 00 00 00
 119.288800 1  7E8             Rx   d 8 03 41 0D 2C 00 00 00 00
 119.323750 1  7E8             Rx   d 8 04 41 10 05 E7 00 00 00
 119.488750 1  7E8             Rx   d 8 03 41 0D 2C 00 00 00 00
 119.518750 1  7E8             Rx   d 8 04 41 10 04 A7 00 00 00
 119.688800 1  7E8             Rx   d 8 03 41 0D 2C 00 00 00 00
 119.718800 1  7E8             Rx   d 8 04 41 10 02 55 00 00 00
 119.888750 1  7E8             Rx   d 8 03 41 0D 2C 00 00 00 00
 119.918750 1  7E8             Rx   d 8 04 41 10 00 FC 00 00 00
 120.008800 1  7E8             Rx   d 8 03 41 05 6D 00 00 00 00
 120.063800 1  7E8             Rx   d 8 04 41 0C 11 F4 00 00 00
 120.099000 1  7E8             Rx   d 8 03 41 0D 2C 00 00 00 00
 120.128800 1  7E8             Rx   d 8 03 41 11 1B 00 00 00 00
 120.283800 1  7E8             Rx   d 8 03 41 0D 2C 00 00 00 00
 120.323800 1  7E8             Rx   d 8 04 41 10 01 5B 00 00 00
 120.483800 1  7E8             Rx   d 8 03 41 0D 2B 00 00 00 00
 120.523800 1  7E8             Rx   d 8 04 41 10 01 34 00 00 00
 120.693800 1  7E8             Rx   d 8 03 41 0D 2B 00 00 00 00
 120.723800 1  7E8             Rx   d 8 04 41 10 01 0D 00 00 00
 120.883800 1  7E8             Rx   d 8 03 41 0D 2B 00 00 00 00
 120.923800 1  7E8             Rx   d 8 04 41 10 01 0D 00 00 00
 121.003800 1  7E8             Rx   d 8 03 41 05 6D 00 00 00 00
 121.063800 1  7E8             Rx   d 8 04 41 0C 10 E6 00 00 00
 121.103800 1  7E8             Rx   d 8 03 41 0D 2A 00 00 00 00
 121.123800 1  7E8             Rx   d 8 03 41 11 1D 00 00 00 00
 121.283850 1  7E8             Rx   d 8 03 41 0D 29 00 00 00 00
 121.323850 1  7E8             Rx   d 8 04 41 10 01 1B 00 00 00
 121.483850 1  7E8             Rx   d 8 03 41 0D 28 00 00 00 00
 121.523850 1  7E8             Rx   d 8 04 41 10 01 10 00 00 00
 121.683850 1  7E8             Rx   d 8 03 41 0D 26 00 00 00 00
 121.723850 1  7E8             Rx   d 8 04 41 10 01 05 00 00 00
 121.883850 1  7E8             Rx   d 8 03 41 0D 25 00 00 00 00
 121.918850 1  7E8             Rx   d 8 04 41 10 00 F9 00 00 00
 122.008850 1  7E8             Rx   d 8 03 41 05 6D 00 00 00 00
 122.068850 1  7E8             Rx   d 8 04 41 0C 0E 7A 00 00 00
 122.099100 1  7E8             Rx   d 8 03 41 0D 25 00 00 00 00
 122.128850 1  7E8             Rx   d 8 03 41 11 1C 00 00 00 00
 122.288850 1  7E8             Rx   d 8 03 41 0D 23 00 00 00 00
 122.318850 1  7E8             Rx   d 8 04 41 10 00 F1 00 00 00
 122.488850 1  7E8             Rx   d 8 03 41 0D 22 00 00 00 00
 122.518850 1  7E8             Rx   d 8 04 41 10 00 E9 00 00 00
 122.688850 1  7E8             Rx   d 8 03 41 0D 22 00 00 00 00
 122.718850 1  7E8             Rx   d 8 04 41 10 00 F1 00 00 00
 122.888900 1  7E8             Rx   d 8 03 41 0D 22 00 00 00 00
 122.918900 1  7E8             Rx   d 8 04 41 10 01 12 00 00 00
 123.008950 1  7E8             Rx   d 8 03 41 05 6D 00 00 00 00
 123.068850 1  7E8             Rx   d 8 04 41 0C 12 0C 00 00 00
 123.099100 1  7E8             Rx   d 8 03 41 0D 21 00 00 00 00
 123.128850 1  7E8             Rx   d 8 03 41 11 1D 00 00 00 00
 123.288900 1  7E8             Rx   d 8 03 41 0D 21 00 00 00 00
 123.323900 1  7E8             Rx   d 8 04 41 10 02 D7 00 00 00
 123.493900 1  7E8             Rx   d 8 03 41 0D 21 00 00 00 00
 123.519100 1  7E8             Rx   d 8 04 41 10 02 AB 00 00 00
 123.683900 1  7E8             Rx   d 8 03 41 0D 20 00 00 00 00
 123.723900 1  7E8             Rx   d 8 04 41 10 02 84 00 00 00
 123.883900 1  7E8             Rx   d 8 03 41 0D 20 00 00 00 00
 123.923900 1  7E8             Rx   d 8 04 41 10 02 84 00 00 00
 124.013950 1  7E8             Rx   d 8 03 41 05 6E 00 00 00 00
 124.063950 1  7E8             Rx   d 8 04 41 0C 15 48 00 00 00
 124.103950 1  7E8             Rx   d 8 03 41 0D 20 00 00 00 00
 124.123950 1  7E8             Rx   d 8 03 41 11 2A 00 00 00 00
 124.283950 1  7E8             Rx   d 8 03 41 0D 20 00 00 00 00
 124.323950 1  7E8             Rx   d 8 04 41 10 07 13 00 00 00
 124.493950 1  7E8             Rx   d 8 03 41 0D 21 00 00 00 00
 124.523950 1  7E8             Rx   d 8 04 41 10 07 9B 00 00 00
 124.683950 1  7E8             Rx   d 8 03 41 0D 21 00 00 00 00
 124.723950 1  7E8             Rx   d 8 04 41 10 09 F8 00 00 00
 124.883950 1  7E8             Rx   d 8 03 41 0D 22 00 00 00 00
 124.923950 1  7E8             Rx   d 8 04 41 10 0A 9C 00 00 00
 125.003950 1  7E8             Rx   d 8 03 41 05 6E 00 00 00 00
 125.063950 1  7E8             Rx   d 8 04 41 0C 14 82 00 00 00
 125.103950 1  7E8             Rx   d 8 03 41 0D 23 00 00 00 00
 125.123950 1  7E8             Rx   d 8 03 41 11 CB 00 00 00 00
 125.284000 1  7E8             Rx   d 8 03 41 0D 24 00 00 00 00
 125.319150 1  7E8             Rx   d 8 04 41 10 0A FD 00 00 00
 125.489000 1  7E8             Rx   d 8 03 41 0D 25 00 00 00 00
 125.524000 1  7E8             Rx   d 8 04 41 10 0B A7 00 00 00
 125.688950 1  7E8             Rx   d 8 03 41 0D 26 00 00 00 00
 125.718950 1  7E8             Rx   d 8 04 41 10 0B C3 00 00 00
 125.889050 1  7E8             Rx   d 8 03 41 0D 27 00 00 00 00
 125.919150 1  7E8             Rx   d 8 04 41 10 0B EF 00 00 00
 126.008950 1  7E8             Rx   d 8 03 41 05 6E 00 00 00 00
 126.068950 1  7E8             Rx   d 8 04 41 0C 17 42 00 00 00
 126.099200 1  7E8             Rx   d 8 03 41 0D 28 00 00 00 00
 126.128950 1  7E8             Rx   d 8 03 41 11 B5 00 00 00 00
 126.284000 1  7E8             Rx   d 8 03 41 0D 28 00 00 00 00
 126.319000 1  7E8             Rx   d 8 04 41 10 0C 40 00 00 00
 126.489100 1  7E8             Rx   d 8 03 41 0D 2A 00 00 00 00
 126.519200 1  7E8             Rx   d 8 04 41 10 0C 6F 00 00 00
 126.684000 1  7E8             Rx   d 8 03 41 0D 2A 00 00 00 00
 126.719000 1  7E8             Rx   d 8 04 41 10 0C 77 00 00 00
 126.889000 1  7E8             Rx   d 8 03 41 0D 2B 00 00 00 00
 126.919000 1  7E8             Rx   d 8 04 41 10 08 9D 00 00 00
 127.004000 1  7E8             Rx   d 8 03 41 05 6E 00 00 00 00
 127.064000 1  7E8             Rx   d 8 04 41 0C 19 9E 00 00 00
 127.104050 1  7E8             Rx   d 8 03 41 0D 2C 00 00 00 00
 127.124000 1  7E8             Rx   d 8 03 41 11 3B 00 00 00 00
 127.289050 1  7E8             Rx   d 8 03 41 0D 2C 00 00 00 00
 127.324050 1  7E8             Rx   d 8 04 41 10 09 12 00 00 00
 127.484050 1  7E8             Rx   d 8 03 41 0D 2D 00 00 00 00
 127.519050 1  7E8             Rx   d 8 04 41 10 06 00 00 00 00
 127.694050 1  7E8             Rx   d 8 03 41 0D 2D 00 00 00 00
 127.724050 1  7E8             Rx   d 8 04 41 10 02 7C 00 00 00
 127.889050 1  7E8             Rx   d 8 03 41 0D 2D 00 00 00 00
 127.924050 1  7E8             Rx   d 8 04 41 10 01 2B 00 00 00
 128.009050 1  7E8             Rx   d 8 03 41 05 6E 00 00 00 00
 128.064050 1  7E8             Rx   d 8 04 41 0C 19 C8 00 00 00
 128.104050 1  7E8             Rx   d 8 03 41 0D 2C 00 00 00 00
 128.129050 1  7E8             Rx   d 8 03 41 11 1F 00 00 00 00
 128.289200 1  7E8             Rx   d 8 03 41 0D 2C 00 00 00 00
 128.324100 1  7E8             Rx   d 8 04 41 10 01 8A 00 00 00
 128.489050 1  7E8             Rx   d 8 03 41 0D 2C 00 00 00 00
 128.524050 1  7E8             Rx   d 8 04 41 10 01 7C 00 00 00
 128.689100 1  7E8             Rx   d 8 03 41 0D 2B 00 00 00 00
 128.719100 1  7E8             Rx   d 8 04 41 10 01 50 00 00 00
 128.889200 1  7E8             Rx   d 8 03 41 0D 2A 00 00 00 00
 128.919300 1  7E8             Rx   d 8 04 41 10 01 4A 00 00 00
 129.009100 1  7E8             Rx   d 8 03 41 05 6F 00 00 00 00
 129.069100 1  7E8             Rx   d 8 04 41 0C 11 86 00 00 00
 129.099350 1  7E8             Rx   d 8 03 41 0D 2A 00 00 00 00
